# vsim -sv_seed 133882 -coverage -coveranalysis -voptargs="+acc" -assertdebug -c testbench -do "coverage save -codeAll -cvg -onexit reg_rw_test_133882.ucdb; log -r /*;run -all;" -l reg_rw_test_133882.log "+UVM_TESTNAME=reg_rw_test" "+UVM_VERBOSITY=UVM_HIGH" 
# Start time: 18:58:55 on Dec 11,2025
# Loading /tmp/venus@nus-fedora_dpi_56875/linux_x86_64_gcc-15/export_tramp.so
# ** Note: (vsim-8009) Loading existing optimized design _opt
# //  Questa Sim-64
# //  Version 2021.2_1 linux_x86_64 May 15 2021
# //
# //  Copyright 1991-2021 Mentor Graphics Corporation
# //  All Rights Reserved.
# //
# //  QuestaSim and its associated documentation contain trade
# //  secrets and commercial or financial information that are the property of
# //  Mentor Graphics Corporation and are privileged, confidential,
# //  and exempt from disclosure under the Freedom of Information Act,
# //  5 U.S.C. Section 552. Furthermore, this information
# //  is prohibited from disclosure under the Trade Secrets Act,
# //  18 U.S.C. Section 1905.
# //
# ** Note: (vsim-8785) UVM-aware debugging capabilities will be disabled since no compiled "questa_uvm_pkg" can be found.
# This also means that later if you turn on UVM-aware debugging your debug simulations may have
# different random seeds from your non-debug simulations.
# Loading sv_std.std
# Loading work.apb_if(fast)
# Loading work.spi_if(fast)
# Loading work.uvm_pkg(fast)
# Loading work.apb_pkg(fast)
# Loading work.spi_pkg(fast)
# Loading work.seq_pkg(fast)
# Loading work.spi_register_pkg(fast)
# Loading work.spi_regmodel_pkg(fast)
# Loading work.env_pkg(fast)
# Loading work.test_pkg(fast)
# Loading work.testbench(fast)
# Loading work.apb_if(fast__2)
# Loading work.spi_if(fast__2)
# Loading work.apb_spi_top(fast)
# Loading work.apb_bus(fast)
# Loading work.register(fast)
# Loading work.fifo(fast)
# Loading work.spi_master(fast)
# Loading work.interrupt(fast)
# ** Warning: (vsim-3764) Stand-alone call to function 'get' treated as implicit void cast.
#    Time: 0 ps  Iteration: 0  Instance: /testbench File: ./../tb/testbench.sv Line: 54
# Compiling /tmp/venus@nus-fedora_dpi_56875/linux_x86_64_gcc-15/exportwrapper.c
# Loading /tmp/venus@nus-fedora_dpi_56875/linux_x86_64_gcc-15/vsim_auto_compile.so
# coverage save -codeAll -cvg -onexit reg_rw_test_133882.ucdb
#  log -r /*
# run -all
# UVM_INFO /home/venus/QuestaSim/uvm-1.2/src/base/uvm_root.svh(392) @ 0: reporter [UVM/RELNOTES] 
# ----------------------------------------------------------------
# UVM-1.2
# (C) 2007-2014 Mentor Graphics Corporation
# (C) 2007-2014 Cadence Design Systems, Inc.
# (C) 2006-2014 Synopsys, Inc.
# (C) 2011-2013 Cypress Semiconductor Corp.
# (C) 2013-2014 NVIDIA Corporation
# ----------------------------------------------------------------
# 
#   ***********       IMPORTANT RELEASE NOTES         ************
# 
#   You are using a version of the UVM library that has been compiled
#   with `UVM_NO_DEPRECATED undefined.
#   See http://www.eda.org/svdb/view.php?id=3313 for more details.
# 
#   You are using a version of the UVM library that has been compiled
#   with `UVM_OBJECT_DO_NOT_NEED_CONSTRUCTOR undefined.
#   See http://www.eda.org/svdb/view.php?id=3770 for more details.
# 
#       (Specify +UVM_NO_RELNOTES to turn off this notice)
# 
# UVM_INFO /home/venus/QuestaSim/uvm-1.2/src/base/uvm_root.svh(453) @ 0: reporter [NO_DPI_TSTNAME] UVM_NO_DPI defined--getting UVM_TESTNAME directly, without DPI
# UVM_INFO @ 0: reporter [RNTST] Running test reg_rw_test...
# UVM_INFO ./../testcases/spi_base_test.sv(69) @ 0: uvm_test_top [build_phase] Entered....
# UVM_INFO ./../testcases/spi_base_test.sv(89) @ 0: uvm_test_top [build_phase] Exitting....
# UVM_INFO ./../testcases/spi_base_test.sv(41) @ 0: uvm_test_top [reg_rw_test] Completed config apb freq: 
# ----------------------------------------
# Name      Type               Size  Value
# ----------------------------------------
# apb_freq  apb_configuration  -     @387 
#   freq    integral           32    'd100
#   period  integral           64    'd10 
# ----------------------------------------
# 
# UVM_INFO ./../tb/spi_environment.sv(24) @ 0: uvm_test_top.env [build_phase] Entered.....
# UVM_INFO ./../tb/spi_environment.sv(53) @ 0: uvm_test_top.env [build_phase] Exiting....
# UVM_INFO ./../vip/apb_vip/apb_agent.sv(23) @ 0: uvm_test_top.env.apb_agt [apb_agent] Active APB agent is configured
# UVM_INFO ./../vip/spi_vip/spi_agent.sv(27) @ 0: uvm_test_top.env.spi_agt [spi_agent] Active agent is configured
# UVM_INFO ./../tb/spi_environment.sv(58) @ 0: uvm_test_top.env [connect_phase] Entered.....
# UVM_INFO ./../tb/spi_environment.sv(72) @ 0: uvm_test_top.env [connect_phase] Exitting....
# UVM_INFO /home/venus/QuestaSim/uvm-1.2/src/base/uvm_root.svh(579) @ 0: reporter [UVMTOP] UVM testbench topology:
# -------------------------------------------------------------------------------------
# Name                                Type                                  Size  Value
# -------------------------------------------------------------------------------------
# uvm_test_top                        reg_rw_test                           -     @351 
#   env                               spi_environment                       -     @376 
#     apb_agt                         apb_agent                             -     @412 
#       driver                        apb_driver                            -     @526 
#         rsp_port                    uvm_analysis_port                     -     @545 
#         seq_item_port               uvm_seq_item_pull_port                -     @535 
#       monitor                       apb_monitor                           -     @555 
#         apb_observe_port            uvm_analysis_port                     -     @708 
#       sequencer                     apb_sequencer                         -     @564 
#         rsp_export                  uvm_analysis_export                   -     @573 
#         seq_item_export             uvm_seq_item_pull_imp                 -     @691 
#         arbitration_queue           array                                 0     -    
#         lock_queue                  array                                 0     -    
#         num_last_reqs               integral                              32    'd1  
#         num_last_rsps               integral                              32    'd1  
#     apb_predictor                   uvm_reg_predictor #(apb_transaction)  -     @479 
#       bus_in                        uvm_analysis_imp                      -     @488 
#       reg_ap                        uvm_analysis_port                     -     @498 
#     scoreboard                      spi_scoreboard                        -     @430 
#       apb_export                    uvm_analysis_imp_apb                  -     @746 
#       miso_export                   uvm_analysis_imp_miso                 -     @736 
#       mosi_export                   uvm_analysis_imp_mosi                 -     @726 
#       sclk_freq_export              uvm_analysis_imp_sclk_freq            -     @766 
#       ss_export                     uvm_analysis_imp_ss                   -     @756 
#     spi_agt                         spi_agent                             -     @421 
#       driver                        spi_driver                            -     @919 
#         rsp_port                    uvm_analysis_port                     -     @938 
#         seq_item_port               uvm_seq_item_pull_port                -     @928 
#       monitor                       spi_monitor                           -     @948 
#         spi_observe_port_miso       uvm_analysis_port                     -     @967 
#         spi_observe_port_sclk_freq  uvm_analysis_port                     -     @987 
#         spi_observe_port_ss         uvm_analysis_port                     -     @977 
#         spi_obverse_port_mosi       uvm_analysis_port                     -     @957 
#       sequencer                     spi_sequencer                         -     @782 
#         rsp_export                  uvm_analysis_export                   -     @791 
#         seq_item_export             uvm_seq_item_pull_imp                 -     @909 
#         arbitration_queue           array                                 0     -    
#         lock_queue                  array                                 0     -    
#         num_last_reqs               integral                              32    'd1  
#         num_last_rsps               integral                              32    'd1  
# -------------------------------------------------------------------------------------
# 
# UVM_INFO /home/venus/QuestaSim/uvm-1.2/src/base/uvm_traversal.svh(279) @ 0: reporter [UVM/COMP/NAMECHECK] This implementation of the component name checks requires DPI to be enabled
# UVM_INFO ./../vip/apb_vip/apb_monitor.sv(21) @ 0: uvm_test_top.env.apb_agt.monitor [apb_monitor] Start capture APB interface
# UVM_INFO @ 0: reporter@@bit_bash_seq [STARTING_SEQ] 
# 
# Starting bit_bash_seq sequence...
# 
# UVM_INFO /home/venus/QuestaSim/uvm-1.2/src/reg/sequences/uvm_reg_bit_bash_seq.svh(128) @ 0: reporter@@bit_bash_seq.reg_single_bit_bash_seq [uvm_reg_bit_bash_seq] Verifying bits in register regmodel.RBR in map "regmodel.apb_map"...
# UVM_INFO /home/venus/QuestaSim/uvm-1.2/src/reg/sequences/uvm_reg_bit_bash_seq.svh(152) @ 0: reporter@@bit_bash_seq.reg_single_bit_bash_seq [uvm_reg_bit_bash_seq] ...Bashing RO bit #0
# UVM_INFO ./../regmodel/spi_reg2apb_adapter.sv(27) @ 0: reporter [spi_reg2apb_adapter] reg2bus: address = 0x40002014, data = 0x1, kind = WRITE
# UVM_INFO ./../vip/apb_vip/apb_driver.sv(38) @ 105000: uvm_test_top.env.apb_agt.driver [run_phase] Start WRITE transaction - ADDR: 0x40002014
# UVM_INFO ./../vip/apb_vip/apb_driver.sv(64) @ 125000: uvm_test_top.env.apb_agt.driver [run_phase] Completed WRITE transaction - ADDR: 0x40002014 - DATA: 0x1
# UVM_INFO ./../vip/apb_vip/apb_monitor.sv(45) @ 125000: uvm_test_top.env.apb_agt.monitor [apb_monitor] Finished
# UVM_INFO ./../vip/apb_vip/apb_monitor.sv(46) @ 125000: uvm_test_top.env.apb_agt.monitor [apb_monitor] Send trans from monitor to scoreboard: 
# ----------------------------------------------------
# Name               Type             Size  Value     
# ----------------------------------------------------
# uvm_sequence_item  apb_transaction  -     @1120     
#   xact_type        xact_type_enum   1     WRITE     
#   addr             integral         32    'h40002014
#   data             integral         32    'h1       
#   pslverr          integral         1     'h0       
# ----------------------------------------------------
# 
# UVM_INFO ./../regmodel/spi_reg2apb_adapter.sv(41) @ 125000: reporter [spi_reg2apb_adapter] bus2reg: address = 0x40002014, data = 0x1, kind = UVM_WRITE, status = UVM_IS_OK
# UVM_INFO /home/venus/QuestaSim/uvm-1.2/src/reg/uvm_reg_predictor.svh(218) @ 125000: uvm_test_top.env.apb_predictor [REG_PREDICT] Observed WRITE transaction to register regmodel.RBR: value='h1 : updated value = 'h0
# UVM_INFO ./../tb/spi_scoreboard.sv(122) @ 125000: uvm_test_top.env.scoreboard [run_phase] Get transaction from monitor: 
# ----------------------------------------------------
# Name               Type             Size  Value     
# ----------------------------------------------------
# uvm_sequence_item  apb_transaction  -     @1120     
#   xact_type        xact_type_enum   1     WRITE     
#   addr             integral         32    'h40002014
#   data             integral         32    'h1       
#   pslverr          integral         1     'h0       
# ----------------------------------------------------
# 
# UVM_INFO ./../regmodel/spi_reg2apb_adapter.sv(41) @ 125000: reporter [spi_reg2apb_adapter] bus2reg: address = 0x40002014, data = 0x1, kind = UVM_WRITE, status = UVM_IS_OK
# UVM_INFO @ 125000: reporter [RegModel] Wrote register via map regmodel.apb_map: regmodel.RBR=0x1
# UVM_INFO ./../regmodel/spi_reg2apb_adapter.sv(27) @ 125000: reporter [spi_reg2apb_adapter] reg2bus: address = 0x40002014, data = 0x0, kind = READ
# UVM_INFO ./../vip/apb_vip/apb_driver.sv(38) @ 135000: uvm_test_top.env.apb_agt.driver [run_phase] Start  READ transaction - ADDR: 0x40002014
# UVM_INFO ./../vip/apb_vip/apb_driver.sv(64) @ 155000: uvm_test_top.env.apb_agt.driver [run_phase] Completed  READ transaction - ADDR: 0x40002014 - DATA: 0x0
# UVM_INFO ./../vip/apb_vip/apb_monitor.sv(45) @ 155000: uvm_test_top.env.apb_agt.monitor [apb_monitor] Finished
# UVM_INFO ./../vip/apb_vip/apb_monitor.sv(46) @ 155000: uvm_test_top.env.apb_agt.monitor [apb_monitor] Send trans from monitor to scoreboard: 
# ----------------------------------------------------
# Name               Type             Size  Value     
# ----------------------------------------------------
# uvm_sequence_item  apb_transaction  -     @1161     
#   xact_type        xact_type_enum   1     READ      
#   addr             integral         32    'h40002014
#   data             integral         32    'h0       
#   pslverr          integral         1     'h0       
# ----------------------------------------------------
# 
# UVM_INFO ./../regmodel/spi_reg2apb_adapter.sv(41) @ 155000: reporter [spi_reg2apb_adapter] bus2reg: address = 0x40002014, data = 0x0, kind = UVM_READ, status = UVM_IS_OK
# UVM_INFO /home/venus/QuestaSim/uvm-1.2/src/reg/uvm_reg_predictor.svh(223) @ 155000: uvm_test_top.env.apb_predictor [REG_PREDICT] Observed READ transaction to register regmodel.RBR: value='h0
# UVM_INFO ./../tb/spi_scoreboard.sv(122) @ 155000: uvm_test_top.env.scoreboard [run_phase] Get transaction from monitor: 
# ----------------------------------------------------
# Name               Type             Size  Value     
# ----------------------------------------------------
# uvm_sequence_item  apb_transaction  -     @1161     
#   xact_type        xact_type_enum   1     READ      
#   addr             integral         32    'h40002014
#   data             integral         32    'h0       
#   pslverr          integral         1     'h0       
# ----------------------------------------------------
# 
# UVM_INFO ./../regmodel/spi_reg2apb_adapter.sv(41) @ 155000: reporter [spi_reg2apb_adapter] bus2reg: address = 0x40002014, data = 0x0, kind = UVM_READ, status = UVM_IS_OK
# UVM_INFO @ 155000: reporter [RegModel] Read  register via map regmodel.apb_map: regmodel.RBR=0
# UVM_INFO ./../regmodel/spi_reg2apb_adapter.sv(27) @ 155000: reporter [spi_reg2apb_adapter] reg2bus: address = 0x40002014, data = 0x1, kind = WRITE
# UVM_INFO ./../vip/apb_vip/apb_driver.sv(38) @ 165000: uvm_test_top.env.apb_agt.driver [run_phase] Start WRITE transaction - ADDR: 0x40002014
# UVM_INFO ./../vip/apb_vip/apb_driver.sv(64) @ 185000: uvm_test_top.env.apb_agt.driver [run_phase] Completed WRITE transaction - ADDR: 0x40002014 - DATA: 0x1
# UVM_INFO ./../vip/apb_vip/apb_monitor.sv(45) @ 185000: uvm_test_top.env.apb_agt.monitor [apb_monitor] Finished
# UVM_INFO ./../vip/apb_vip/apb_monitor.sv(46) @ 185000: uvm_test_top.env.apb_agt.monitor [apb_monitor] Send trans from monitor to scoreboard: 
# ----------------------------------------------------
# Name               Type             Size  Value     
# ----------------------------------------------------
# uvm_sequence_item  apb_transaction  -     @1201     
#   xact_type        xact_type_enum   1     WRITE     
#   addr             integral         32    'h40002014
#   data             integral         32    'h1       
#   pslverr          integral         1     'h0       
# ----------------------------------------------------
# 
# UVM_INFO ./../regmodel/spi_reg2apb_adapter.sv(41) @ 185000: reporter [spi_reg2apb_adapter] bus2reg: address = 0x40002014, data = 0x1, kind = UVM_WRITE, status = UVM_IS_OK
# UVM_INFO /home/venus/QuestaSim/uvm-1.2/src/reg/uvm_reg_predictor.svh(218) @ 185000: uvm_test_top.env.apb_predictor [REG_PREDICT] Observed WRITE transaction to register regmodel.RBR: value='h1 : updated value = 'h0
# UVM_INFO ./../tb/spi_scoreboard.sv(122) @ 185000: uvm_test_top.env.scoreboard [run_phase] Get transaction from monitor: 
# ----------------------------------------------------
# Name               Type             Size  Value     
# ----------------------------------------------------
# uvm_sequence_item  apb_transaction  -     @1201     
#   xact_type        xact_type_enum   1     WRITE     
#   addr             integral         32    'h40002014
#   data             integral         32    'h1       
#   pslverr          integral         1     'h0       
# ----------------------------------------------------
# 
# UVM_INFO ./../regmodel/spi_reg2apb_adapter.sv(41) @ 185000: reporter [spi_reg2apb_adapter] bus2reg: address = 0x40002014, data = 0x1, kind = UVM_WRITE, status = UVM_IS_OK
# UVM_INFO @ 185000: reporter [RegModel] Wrote register via map regmodel.apb_map: regmodel.RBR=0x1
# UVM_INFO ./../regmodel/spi_reg2apb_adapter.sv(27) @ 185000: reporter [spi_reg2apb_adapter] reg2bus: address = 0x40002014, data = 0x0, kind = READ
# UVM_INFO ./../vip/apb_vip/apb_driver.sv(38) @ 195000: uvm_test_top.env.apb_agt.driver [run_phase] Start  READ transaction - ADDR: 0x40002014
# UVM_INFO ./../vip/apb_vip/apb_driver.sv(64) @ 215000: uvm_test_top.env.apb_agt.driver [run_phase] Completed  READ transaction - ADDR: 0x40002014 - DATA: 0x0
# UVM_INFO ./../vip/apb_vip/apb_monitor.sv(45) @ 215000: uvm_test_top.env.apb_agt.monitor [apb_monitor] Finished
# UVM_INFO ./../vip/apb_vip/apb_monitor.sv(46) @ 215000: uvm_test_top.env.apb_agt.monitor [apb_monitor] Send trans from monitor to scoreboard: 
# ----------------------------------------------------
# Name               Type             Size  Value     
# ----------------------------------------------------
# uvm_sequence_item  apb_transaction  -     @1241     
#   xact_type        xact_type_enum   1     READ      
#   addr             integral         32    'h40002014
#   data             integral         32    'h0       
#   pslverr          integral         1     'h0       
# ----------------------------------------------------
# 
# UVM_INFO ./../regmodel/spi_reg2apb_adapter.sv(41) @ 215000: reporter [spi_reg2apb_adapter] bus2reg: address = 0x40002014, data = 0x0, kind = UVM_READ, status = UVM_IS_OK
# UVM_INFO /home/venus/QuestaSim/uvm-1.2/src/reg/uvm_reg_predictor.svh(223) @ 215000: uvm_test_top.env.apb_predictor [REG_PREDICT] Observed READ transaction to register regmodel.RBR: value='h0
# UVM_INFO ./../tb/spi_scoreboard.sv(122) @ 215000: uvm_test_top.env.scoreboard [run_phase] Get transaction from monitor: 
# ----------------------------------------------------
# Name               Type             Size  Value     
# ----------------------------------------------------
# uvm_sequence_item  apb_transaction  -     @1241     
#   xact_type        xact_type_enum   1     READ      
#   addr             integral         32    'h40002014
#   data             integral         32    'h0       
#   pslverr          integral         1     'h0       
# ----------------------------------------------------
# 
# UVM_INFO ./../regmodel/spi_reg2apb_adapter.sv(41) @ 215000: reporter [spi_reg2apb_adapter] bus2reg: address = 0x40002014, data = 0x0, kind = UVM_READ, status = UVM_IS_OK
# UVM_INFO @ 215000: reporter [RegModel] Read  register via map regmodel.apb_map: regmodel.RBR=0
# UVM_INFO /home/venus/QuestaSim/uvm-1.2/src/reg/sequences/uvm_reg_bit_bash_seq.svh(152) @ 215000: reporter@@bit_bash_seq.reg_single_bit_bash_seq [uvm_reg_bit_bash_seq] ...Bashing RO bit #1
# UVM_INFO ./../regmodel/spi_reg2apb_adapter.sv(27) @ 215000: reporter [spi_reg2apb_adapter] reg2bus: address = 0x40002014, data = 0x2, kind = WRITE
# UVM_INFO ./../vip/apb_vip/apb_driver.sv(38) @ 225000: uvm_test_top.env.apb_agt.driver [run_phase] Start WRITE transaction - ADDR: 0x40002014
# UVM_INFO ./../vip/apb_vip/apb_driver.sv(64) @ 245000: uvm_test_top.env.apb_agt.driver [run_phase] Completed WRITE transaction - ADDR: 0x40002014 - DATA: 0x2
# UVM_INFO ./../vip/apb_vip/apb_monitor.sv(45) @ 245000: uvm_test_top.env.apb_agt.monitor [apb_monitor] Finished
# UVM_INFO ./../vip/apb_vip/apb_monitor.sv(46) @ 245000: uvm_test_top.env.apb_agt.monitor [apb_monitor] Send trans from monitor to scoreboard: 
# ----------------------------------------------------
# Name               Type             Size  Value     
# ----------------------------------------------------
# uvm_sequence_item  apb_transaction  -     @1283     
#   xact_type        xact_type_enum   1     WRITE     
#   addr             integral         32    'h40002014
#   data             integral         32    'h2       
#   pslverr          integral         1     'h0       
# ----------------------------------------------------
# 
# UVM_INFO ./../regmodel/spi_reg2apb_adapter.sv(41) @ 245000: reporter [spi_reg2apb_adapter] bus2reg: address = 0x40002014, data = 0x2, kind = UVM_WRITE, status = UVM_IS_OK
# UVM_INFO /home/venus/QuestaSim/uvm-1.2/src/reg/uvm_reg_predictor.svh(218) @ 245000: uvm_test_top.env.apb_predictor [REG_PREDICT] Observed WRITE transaction to register regmodel.RBR: value='h2 : updated value = 'h0
# UVM_INFO ./../tb/spi_scoreboard.sv(122) @ 245000: uvm_test_top.env.scoreboard [run_phase] Get transaction from monitor: 
# ----------------------------------------------------
# Name               Type             Size  Value     
# ----------------------------------------------------
# uvm_sequence_item  apb_transaction  -     @1283     
#   xact_type        xact_type_enum   1     WRITE     
#   addr             integral         32    'h40002014
#   data             integral         32    'h2       
#   pslverr          integral         1     'h0       
# ----------------------------------------------------
# 
# UVM_INFO ./../regmodel/spi_reg2apb_adapter.sv(41) @ 245000: reporter [spi_reg2apb_adapter] bus2reg: address = 0x40002014, data = 0x2, kind = UVM_WRITE, status = UVM_IS_OK
# UVM_INFO @ 245000: reporter [RegModel] Wrote register via map regmodel.apb_map: regmodel.RBR=0x2
# UVM_INFO ./../regmodel/spi_reg2apb_adapter.sv(27) @ 245000: reporter [spi_reg2apb_adapter] reg2bus: address = 0x40002014, data = 0x0, kind = READ
# UVM_INFO ./../vip/apb_vip/apb_driver.sv(38) @ 255000: uvm_test_top.env.apb_agt.driver [run_phase] Start  READ transaction - ADDR: 0x40002014
# UVM_INFO ./../vip/apb_vip/apb_driver.sv(64) @ 275000: uvm_test_top.env.apb_agt.driver [run_phase] Completed  READ transaction - ADDR: 0x40002014 - DATA: 0x0
# UVM_INFO ./../vip/apb_vip/apb_monitor.sv(45) @ 275000: uvm_test_top.env.apb_agt.monitor [apb_monitor] Finished
# UVM_INFO ./../vip/apb_vip/apb_monitor.sv(46) @ 275000: uvm_test_top.env.apb_agt.monitor [apb_monitor] Send trans from monitor to scoreboard: 
# ----------------------------------------------------
# Name               Type             Size  Value     
# ----------------------------------------------------
# uvm_sequence_item  apb_transaction  -     @1323     
#   xact_type        xact_type_enum   1     READ      
#   addr             integral         32    'h40002014
#   data             integral         32    'h0       
#   pslverr          integral         1     'h0       
# ----------------------------------------------------
# 
# UVM_INFO ./../regmodel/spi_reg2apb_adapter.sv(41) @ 275000: reporter [spi_reg2apb_adapter] bus2reg: address = 0x40002014, data = 0x0, kind = UVM_READ, status = UVM_IS_OK
# UVM_INFO /home/venus/QuestaSim/uvm-1.2/src/reg/uvm_reg_predictor.svh(223) @ 275000: uvm_test_top.env.apb_predictor [REG_PREDICT] Observed READ transaction to register regmodel.RBR: value='h0
# UVM_INFO ./../tb/spi_scoreboard.sv(122) @ 275000: uvm_test_top.env.scoreboard [run_phase] Get transaction from monitor: 
# ----------------------------------------------------
# Name               Type             Size  Value     
# ----------------------------------------------------
# uvm_sequence_item  apb_transaction  -     @1323     
#   xact_type        xact_type_enum   1     READ      
#   addr             integral         32    'h40002014
#   data             integral         32    'h0       
#   pslverr          integral         1     'h0       
# ----------------------------------------------------
# 
# UVM_INFO ./../regmodel/spi_reg2apb_adapter.sv(41) @ 275000: reporter [spi_reg2apb_adapter] bus2reg: address = 0x40002014, data = 0x0, kind = UVM_READ, status = UVM_IS_OK
# UVM_INFO @ 275000: reporter [RegModel] Read  register via map regmodel.apb_map: regmodel.RBR=0
# UVM_INFO ./../regmodel/spi_reg2apb_adapter.sv(27) @ 275000: reporter [spi_reg2apb_adapter] reg2bus: address = 0x40002014, data = 0x2, kind = WRITE
# UVM_INFO ./../vip/apb_vip/apb_driver.sv(38) @ 285000: uvm_test_top.env.apb_agt.driver [run_phase] Start WRITE transaction - ADDR: 0x40002014
# UVM_INFO ./../vip/apb_vip/apb_driver.sv(64) @ 305000: uvm_test_top.env.apb_agt.driver [run_phase] Completed WRITE transaction - ADDR: 0x40002014 - DATA: 0x2
# UVM_INFO ./../vip/apb_vip/apb_monitor.sv(45) @ 305000: uvm_test_top.env.apb_agt.monitor [apb_monitor] Finished
# UVM_INFO ./../vip/apb_vip/apb_monitor.sv(46) @ 305000: uvm_test_top.env.apb_agt.monitor [apb_monitor] Send trans from monitor to scoreboard: 
# ----------------------------------------------------
# Name               Type             Size  Value     
# ----------------------------------------------------
# uvm_sequence_item  apb_transaction  -     @1363     
#   xact_type        xact_type_enum   1     WRITE     
#   addr             integral         32    'h40002014
#   data             integral         32    'h2       
#   pslverr          integral         1     'h0       
# ----------------------------------------------------
# 
# UVM_INFO ./../regmodel/spi_reg2apb_adapter.sv(41) @ 305000: reporter [spi_reg2apb_adapter] bus2reg: address = 0x40002014, data = 0x2, kind = UVM_WRITE, status = UVM_IS_OK
# UVM_INFO /home/venus/QuestaSim/uvm-1.2/src/reg/uvm_reg_predictor.svh(218) @ 305000: uvm_test_top.env.apb_predictor [REG_PREDICT] Observed WRITE transaction to register regmodel.RBR: value='h2 : updated value = 'h0
# UVM_INFO ./../tb/spi_scoreboard.sv(122) @ 305000: uvm_test_top.env.scoreboard [run_phase] Get transaction from monitor: 
# ----------------------------------------------------
# Name               Type             Size  Value     
# ----------------------------------------------------
# uvm_sequence_item  apb_transaction  -     @1363     
#   xact_type        xact_type_enum   1     WRITE     
#   addr             integral         32    'h40002014
#   data             integral         32    'h2       
#   pslverr          integral         1     'h0       
# ----------------------------------------------------
# 
# UVM_INFO ./../regmodel/spi_reg2apb_adapter.sv(41) @ 305000: reporter [spi_reg2apb_adapter] bus2reg: address = 0x40002014, data = 0x2, kind = UVM_WRITE, status = UVM_IS_OK
# UVM_INFO @ 305000: reporter [RegModel] Wrote register via map regmodel.apb_map: regmodel.RBR=0x2
# UVM_INFO ./../regmodel/spi_reg2apb_adapter.sv(27) @ 305000: reporter [spi_reg2apb_adapter] reg2bus: address = 0x40002014, data = 0x0, kind = READ
# UVM_INFO ./../vip/apb_vip/apb_driver.sv(38) @ 315000: uvm_test_top.env.apb_agt.driver [run_phase] Start  READ transaction - ADDR: 0x40002014
# UVM_INFO ./../vip/apb_vip/apb_driver.sv(64) @ 335000: uvm_test_top.env.apb_agt.driver [run_phase] Completed  READ transaction - ADDR: 0x40002014 - DATA: 0x0
# UVM_INFO ./../vip/apb_vip/apb_monitor.sv(45) @ 335000: uvm_test_top.env.apb_agt.monitor [apb_monitor] Finished
# UVM_INFO ./../vip/apb_vip/apb_monitor.sv(46) @ 335000: uvm_test_top.env.apb_agt.monitor [apb_monitor] Send trans from monitor to scoreboard: 
# ----------------------------------------------------
# Name               Type             Size  Value     
# ----------------------------------------------------
# uvm_sequence_item  apb_transaction  -     @1403     
#   xact_type        xact_type_enum   1     READ      
#   addr             integral         32    'h40002014
#   data             integral         32    'h0       
#   pslverr          integral         1     'h0       
# ----------------------------------------------------
# 
# UVM_INFO ./../regmodel/spi_reg2apb_adapter.sv(41) @ 335000: reporter [spi_reg2apb_adapter] bus2reg: address = 0x40002014, data = 0x0, kind = UVM_READ, status = UVM_IS_OK
# UVM_INFO /home/venus/QuestaSim/uvm-1.2/src/reg/uvm_reg_predictor.svh(223) @ 335000: uvm_test_top.env.apb_predictor [REG_PREDICT] Observed READ transaction to register regmodel.RBR: value='h0
# UVM_INFO ./../tb/spi_scoreboard.sv(122) @ 335000: uvm_test_top.env.scoreboard [run_phase] Get transaction from monitor: 
# ----------------------------------------------------
# Name               Type             Size  Value     
# ----------------------------------------------------
# uvm_sequence_item  apb_transaction  -     @1403     
#   xact_type        xact_type_enum   1     READ      
#   addr             integral         32    'h40002014
#   data             integral         32    'h0       
#   pslverr          integral         1     'h0       
# ----------------------------------------------------
# 
# UVM_INFO ./../regmodel/spi_reg2apb_adapter.sv(41) @ 335000: reporter [spi_reg2apb_adapter] bus2reg: address = 0x40002014, data = 0x0, kind = UVM_READ, status = UVM_IS_OK
# UVM_INFO @ 335000: reporter [RegModel] Read  register via map regmodel.apb_map: regmodel.RBR=0
# UVM_INFO /home/venus/QuestaSim/uvm-1.2/src/reg/sequences/uvm_reg_bit_bash_seq.svh(152) @ 335000: reporter@@bit_bash_seq.reg_single_bit_bash_seq [uvm_reg_bit_bash_seq] ...Bashing RO bit #2
# UVM_INFO ./../regmodel/spi_reg2apb_adapter.sv(27) @ 335000: reporter [spi_reg2apb_adapter] reg2bus: address = 0x40002014, data = 0x4, kind = WRITE
# UVM_INFO ./../vip/apb_vip/apb_driver.sv(38) @ 345000: uvm_test_top.env.apb_agt.driver [run_phase] Start WRITE transaction - ADDR: 0x40002014
# UVM_INFO ./../vip/apb_vip/apb_driver.sv(64) @ 365000: uvm_test_top.env.apb_agt.driver [run_phase] Completed WRITE transaction - ADDR: 0x40002014 - DATA: 0x4
# UVM_INFO ./../vip/apb_vip/apb_monitor.sv(45) @ 365000: uvm_test_top.env.apb_agt.monitor [apb_monitor] Finished
# UVM_INFO ./../vip/apb_vip/apb_monitor.sv(46) @ 365000: uvm_test_top.env.apb_agt.monitor [apb_monitor] Send trans from monitor to scoreboard: 
# ----------------------------------------------------
# Name               Type             Size  Value     
# ----------------------------------------------------
# uvm_sequence_item  apb_transaction  -     @1445     
#   xact_type        xact_type_enum   1     WRITE     
#   addr             integral         32    'h40002014
#   data             integral         32    'h4       
#   pslverr          integral         1     'h0       
# ----------------------------------------------------
# 
# UVM_INFO ./../regmodel/spi_reg2apb_adapter.sv(41) @ 365000: reporter [spi_reg2apb_adapter] bus2reg: address = 0x40002014, data = 0x4, kind = UVM_WRITE, status = UVM_IS_OK
# UVM_INFO /home/venus/QuestaSim/uvm-1.2/src/reg/uvm_reg_predictor.svh(218) @ 365000: uvm_test_top.env.apb_predictor [REG_PREDICT] Observed WRITE transaction to register regmodel.RBR: value='h4 : updated value = 'h0
# UVM_INFO ./../tb/spi_scoreboard.sv(122) @ 365000: uvm_test_top.env.scoreboard [run_phase] Get transaction from monitor: 
# ----------------------------------------------------
# Name               Type             Size  Value     
# ----------------------------------------------------
# uvm_sequence_item  apb_transaction  -     @1445     
#   xact_type        xact_type_enum   1     WRITE     
#   addr             integral         32    'h40002014
#   data             integral         32    'h4       
#   pslverr          integral         1     'h0       
# ----------------------------------------------------
# 
# UVM_INFO ./../regmodel/spi_reg2apb_adapter.sv(41) @ 365000: reporter [spi_reg2apb_adapter] bus2reg: address = 0x40002014, data = 0x4, kind = UVM_WRITE, status = UVM_IS_OK
# UVM_INFO @ 365000: reporter [RegModel] Wrote register via map regmodel.apb_map: regmodel.RBR=0x4
# UVM_INFO ./../regmodel/spi_reg2apb_adapter.sv(27) @ 365000: reporter [spi_reg2apb_adapter] reg2bus: address = 0x40002014, data = 0x0, kind = READ
# UVM_INFO ./../vip/apb_vip/apb_driver.sv(38) @ 375000: uvm_test_top.env.apb_agt.driver [run_phase] Start  READ transaction - ADDR: 0x40002014
# UVM_INFO ./../vip/apb_vip/apb_driver.sv(64) @ 395000: uvm_test_top.env.apb_agt.driver [run_phase] Completed  READ transaction - ADDR: 0x40002014 - DATA: 0x0
# UVM_INFO ./../vip/apb_vip/apb_monitor.sv(45) @ 395000: uvm_test_top.env.apb_agt.monitor [apb_monitor] Finished
# UVM_INFO ./../vip/apb_vip/apb_monitor.sv(46) @ 395000: uvm_test_top.env.apb_agt.monitor [apb_monitor] Send trans from monitor to scoreboard: 
# ----------------------------------------------------
# Name               Type             Size  Value     
# ----------------------------------------------------
# uvm_sequence_item  apb_transaction  -     @1485     
#   xact_type        xact_type_enum   1     READ      
#   addr             integral         32    'h40002014
#   data             integral         32    'h0       
#   pslverr          integral         1     'h0       
# ----------------------------------------------------
# 
# UVM_INFO ./../regmodel/spi_reg2apb_adapter.sv(41) @ 395000: reporter [spi_reg2apb_adapter] bus2reg: address = 0x40002014, data = 0x0, kind = UVM_READ, status = UVM_IS_OK
# UVM_INFO /home/venus/QuestaSim/uvm-1.2/src/reg/uvm_reg_predictor.svh(223) @ 395000: uvm_test_top.env.apb_predictor [REG_PREDICT] Observed READ transaction to register regmodel.RBR: value='h0
# UVM_INFO ./../tb/spi_scoreboard.sv(122) @ 395000: uvm_test_top.env.scoreboard [run_phase] Get transaction from monitor: 
# ----------------------------------------------------
# Name               Type             Size  Value     
# ----------------------------------------------------
# uvm_sequence_item  apb_transaction  -     @1485     
#   xact_type        xact_type_enum   1     READ      
#   addr             integral         32    'h40002014
#   data             integral         32    'h0       
#   pslverr          integral         1     'h0       
# ----------------------------------------------------
# 
# UVM_INFO ./../regmodel/spi_reg2apb_adapter.sv(41) @ 395000: reporter [spi_reg2apb_adapter] bus2reg: address = 0x40002014, data = 0x0, kind = UVM_READ, status = UVM_IS_OK
# UVM_INFO @ 395000: reporter [RegModel] Read  register via map regmodel.apb_map: regmodel.RBR=0
# UVM_INFO ./../regmodel/spi_reg2apb_adapter.sv(27) @ 395000: reporter [spi_reg2apb_adapter] reg2bus: address = 0x40002014, data = 0x4, kind = WRITE
# UVM_INFO ./../vip/apb_vip/apb_driver.sv(38) @ 405000: uvm_test_top.env.apb_agt.driver [run_phase] Start WRITE transaction - ADDR: 0x40002014
# UVM_INFO ./../vip/apb_vip/apb_driver.sv(64) @ 425000: uvm_test_top.env.apb_agt.driver [run_phase] Completed WRITE transaction - ADDR: 0x40002014 - DATA: 0x4
# UVM_INFO ./../vip/apb_vip/apb_monitor.sv(45) @ 425000: uvm_test_top.env.apb_agt.monitor [apb_monitor] Finished
# UVM_INFO ./../vip/apb_vip/apb_monitor.sv(46) @ 425000: uvm_test_top.env.apb_agt.monitor [apb_monitor] Send trans from monitor to scoreboard: 
# ----------------------------------------------------
# Name               Type             Size  Value     
# ----------------------------------------------------
# uvm_sequence_item  apb_transaction  -     @1525     
#   xact_type        xact_type_enum   1     WRITE     
#   addr             integral         32    'h40002014
#   data             integral         32    'h4       
#   pslverr          integral         1     'h0       
# ----------------------------------------------------
# 
# UVM_INFO ./../regmodel/spi_reg2apb_adapter.sv(41) @ 425000: reporter [spi_reg2apb_adapter] bus2reg: address = 0x40002014, data = 0x4, kind = UVM_WRITE, status = UVM_IS_OK
# UVM_INFO /home/venus/QuestaSim/uvm-1.2/src/reg/uvm_reg_predictor.svh(218) @ 425000: uvm_test_top.env.apb_predictor [REG_PREDICT] Observed WRITE transaction to register regmodel.RBR: value='h4 : updated value = 'h0
# UVM_INFO ./../tb/spi_scoreboard.sv(122) @ 425000: uvm_test_top.env.scoreboard [run_phase] Get transaction from monitor: 
# ----------------------------------------------------
# Name               Type             Size  Value     
# ----------------------------------------------------
# uvm_sequence_item  apb_transaction  -     @1525     
#   xact_type        xact_type_enum   1     WRITE     
#   addr             integral         32    'h40002014
#   data             integral         32    'h4       
#   pslverr          integral         1     'h0       
# ----------------------------------------------------
# 
# UVM_INFO ./../regmodel/spi_reg2apb_adapter.sv(41) @ 425000: reporter [spi_reg2apb_adapter] bus2reg: address = 0x40002014, data = 0x4, kind = UVM_WRITE, status = UVM_IS_OK
# UVM_INFO @ 425000: reporter [RegModel] Wrote register via map regmodel.apb_map: regmodel.RBR=0x4
# UVM_INFO ./../regmodel/spi_reg2apb_adapter.sv(27) @ 425000: reporter [spi_reg2apb_adapter] reg2bus: address = 0x40002014, data = 0x0, kind = READ
# UVM_INFO ./../vip/apb_vip/apb_driver.sv(38) @ 435000: uvm_test_top.env.apb_agt.driver [run_phase] Start  READ transaction - ADDR: 0x40002014
# UVM_INFO ./../vip/apb_vip/apb_driver.sv(64) @ 455000: uvm_test_top.env.apb_agt.driver [run_phase] Completed  READ transaction - ADDR: 0x40002014 - DATA: 0x0
# UVM_INFO ./../vip/apb_vip/apb_monitor.sv(45) @ 455000: uvm_test_top.env.apb_agt.monitor [apb_monitor] Finished
# UVM_INFO ./../vip/apb_vip/apb_monitor.sv(46) @ 455000: uvm_test_top.env.apb_agt.monitor [apb_monitor] Send trans from monitor to scoreboard: 
# ----------------------------------------------------
# Name               Type             Size  Value     
# ----------------------------------------------------
# uvm_sequence_item  apb_transaction  -     @1565     
#   xact_type        xact_type_enum   1     READ      
#   addr             integral         32    'h40002014
#   data             integral         32    'h0       
#   pslverr          integral         1     'h0       
# ----------------------------------------------------
# 
# UVM_INFO ./../regmodel/spi_reg2apb_adapter.sv(41) @ 455000: reporter [spi_reg2apb_adapter] bus2reg: address = 0x40002014, data = 0x0, kind = UVM_READ, status = UVM_IS_OK
# UVM_INFO /home/venus/QuestaSim/uvm-1.2/src/reg/uvm_reg_predictor.svh(223) @ 455000: uvm_test_top.env.apb_predictor [REG_PREDICT] Observed READ transaction to register regmodel.RBR: value='h0
# UVM_INFO ./../tb/spi_scoreboard.sv(122) @ 455000: uvm_test_top.env.scoreboard [run_phase] Get transaction from monitor: 
# ----------------------------------------------------
# Name               Type             Size  Value     
# ----------------------------------------------------
# uvm_sequence_item  apb_transaction  -     @1565     
#   xact_type        xact_type_enum   1     READ      
#   addr             integral         32    'h40002014
#   data             integral         32    'h0       
#   pslverr          integral         1     'h0       
# ----------------------------------------------------
# 
# UVM_INFO ./../regmodel/spi_reg2apb_adapter.sv(41) @ 455000: reporter [spi_reg2apb_adapter] bus2reg: address = 0x40002014, data = 0x0, kind = UVM_READ, status = UVM_IS_OK
# UVM_INFO @ 455000: reporter [RegModel] Read  register via map regmodel.apb_map: regmodel.RBR=0
# UVM_INFO /home/venus/QuestaSim/uvm-1.2/src/reg/sequences/uvm_reg_bit_bash_seq.svh(152) @ 455000: reporter@@bit_bash_seq.reg_single_bit_bash_seq [uvm_reg_bit_bash_seq] ...Bashing RO bit #3
# UVM_INFO ./../regmodel/spi_reg2apb_adapter.sv(27) @ 455000: reporter [spi_reg2apb_adapter] reg2bus: address = 0x40002014, data = 0x8, kind = WRITE
# UVM_INFO ./../vip/apb_vip/apb_driver.sv(38) @ 465000: uvm_test_top.env.apb_agt.driver [run_phase] Start WRITE transaction - ADDR: 0x40002014
# UVM_INFO ./../vip/apb_vip/apb_driver.sv(64) @ 485000: uvm_test_top.env.apb_agt.driver [run_phase] Completed WRITE transaction - ADDR: 0x40002014 - DATA: 0x8
# UVM_INFO ./../vip/apb_vip/apb_monitor.sv(45) @ 485000: uvm_test_top.env.apb_agt.monitor [apb_monitor] Finished
# UVM_INFO ./../vip/apb_vip/apb_monitor.sv(46) @ 485000: uvm_test_top.env.apb_agt.monitor [apb_monitor] Send trans from monitor to scoreboard: 
# ----------------------------------------------------
# Name               Type             Size  Value     
# ----------------------------------------------------
# uvm_sequence_item  apb_transaction  -     @1607     
#   xact_type        xact_type_enum   1     WRITE     
#   addr             integral         32    'h40002014
#   data             integral         32    'h8       
#   pslverr          integral         1     'h0       
# ----------------------------------------------------
# 
# UVM_INFO ./../regmodel/spi_reg2apb_adapter.sv(41) @ 485000: reporter [spi_reg2apb_adapter] bus2reg: address = 0x40002014, data = 0x8, kind = UVM_WRITE, status = UVM_IS_OK
# UVM_INFO /home/venus/QuestaSim/uvm-1.2/src/reg/uvm_reg_predictor.svh(218) @ 485000: uvm_test_top.env.apb_predictor [REG_PREDICT] Observed WRITE transaction to register regmodel.RBR: value='h8 : updated value = 'h0
# UVM_INFO ./../tb/spi_scoreboard.sv(122) @ 485000: uvm_test_top.env.scoreboard [run_phase] Get transaction from monitor: 
# ----------------------------------------------------
# Name               Type             Size  Value     
# ----------------------------------------------------
# uvm_sequence_item  apb_transaction  -     @1607     
#   xact_type        xact_type_enum   1     WRITE     
#   addr             integral         32    'h40002014
#   data             integral         32    'h8       
#   pslverr          integral         1     'h0       
# ----------------------------------------------------
# 
# UVM_INFO ./../regmodel/spi_reg2apb_adapter.sv(41) @ 485000: reporter [spi_reg2apb_adapter] bus2reg: address = 0x40002014, data = 0x8, kind = UVM_WRITE, status = UVM_IS_OK
# UVM_INFO @ 485000: reporter [RegModel] Wrote register via map regmodel.apb_map: regmodel.RBR=0x8
# UVM_INFO ./../regmodel/spi_reg2apb_adapter.sv(27) @ 485000: reporter [spi_reg2apb_adapter] reg2bus: address = 0x40002014, data = 0x0, kind = READ
# UVM_INFO ./../vip/apb_vip/apb_driver.sv(38) @ 495000: uvm_test_top.env.apb_agt.driver [run_phase] Start  READ transaction - ADDR: 0x40002014
# UVM_INFO ./../vip/apb_vip/apb_driver.sv(64) @ 515000: uvm_test_top.env.apb_agt.driver [run_phase] Completed  READ transaction - ADDR: 0x40002014 - DATA: 0x0
# UVM_INFO ./../vip/apb_vip/apb_monitor.sv(45) @ 515000: uvm_test_top.env.apb_agt.monitor [apb_monitor] Finished
# UVM_INFO ./../vip/apb_vip/apb_monitor.sv(46) @ 515000: uvm_test_top.env.apb_agt.monitor [apb_monitor] Send trans from monitor to scoreboard: 
# ----------------------------------------------------
# Name               Type             Size  Value     
# ----------------------------------------------------
# uvm_sequence_item  apb_transaction  -     @1647     
#   xact_type        xact_type_enum   1     READ      
#   addr             integral         32    'h40002014
#   data             integral         32    'h0       
#   pslverr          integral         1     'h0       
# ----------------------------------------------------
# 
# UVM_INFO ./../regmodel/spi_reg2apb_adapter.sv(41) @ 515000: reporter [spi_reg2apb_adapter] bus2reg: address = 0x40002014, data = 0x0, kind = UVM_READ, status = UVM_IS_OK
# UVM_INFO /home/venus/QuestaSim/uvm-1.2/src/reg/uvm_reg_predictor.svh(223) @ 515000: uvm_test_top.env.apb_predictor [REG_PREDICT] Observed READ transaction to register regmodel.RBR: value='h0
# UVM_INFO ./../tb/spi_scoreboard.sv(122) @ 515000: uvm_test_top.env.scoreboard [run_phase] Get transaction from monitor: 
# ----------------------------------------------------
# Name               Type             Size  Value     
# ----------------------------------------------------
# uvm_sequence_item  apb_transaction  -     @1647     
#   xact_type        xact_type_enum   1     READ      
#   addr             integral         32    'h40002014
#   data             integral         32    'h0       
#   pslverr          integral         1     'h0       
# ----------------------------------------------------
# 
# UVM_INFO ./../regmodel/spi_reg2apb_adapter.sv(41) @ 515000: reporter [spi_reg2apb_adapter] bus2reg: address = 0x40002014, data = 0x0, kind = UVM_READ, status = UVM_IS_OK
# UVM_INFO @ 515000: reporter [RegModel] Read  register via map regmodel.apb_map: regmodel.RBR=0
# UVM_INFO ./../regmodel/spi_reg2apb_adapter.sv(27) @ 515000: reporter [spi_reg2apb_adapter] reg2bus: address = 0x40002014, data = 0x8, kind = WRITE
# UVM_INFO ./../vip/apb_vip/apb_driver.sv(38) @ 525000: uvm_test_top.env.apb_agt.driver [run_phase] Start WRITE transaction - ADDR: 0x40002014
# UVM_INFO ./../vip/apb_vip/apb_driver.sv(64) @ 545000: uvm_test_top.env.apb_agt.driver [run_phase] Completed WRITE transaction - ADDR: 0x40002014 - DATA: 0x8
# UVM_INFO ./../vip/apb_vip/apb_monitor.sv(45) @ 545000: uvm_test_top.env.apb_agt.monitor [apb_monitor] Finished
# UVM_INFO ./../vip/apb_vip/apb_monitor.sv(46) @ 545000: uvm_test_top.env.apb_agt.monitor [apb_monitor] Send trans from monitor to scoreboard: 
# ----------------------------------------------------
# Name               Type             Size  Value     
# ----------------------------------------------------
# uvm_sequence_item  apb_transaction  -     @1687     
#   xact_type        xact_type_enum   1     WRITE     
#   addr             integral         32    'h40002014
#   data             integral         32    'h8       
#   pslverr          integral         1     'h0       
# ----------------------------------------------------
# 
# UVM_INFO ./../regmodel/spi_reg2apb_adapter.sv(41) @ 545000: reporter [spi_reg2apb_adapter] bus2reg: address = 0x40002014, data = 0x8, kind = UVM_WRITE, status = UVM_IS_OK
# UVM_INFO /home/venus/QuestaSim/uvm-1.2/src/reg/uvm_reg_predictor.svh(218) @ 545000: uvm_test_top.env.apb_predictor [REG_PREDICT] Observed WRITE transaction to register regmodel.RBR: value='h8 : updated value = 'h0
# UVM_INFO ./../tb/spi_scoreboard.sv(122) @ 545000: uvm_test_top.env.scoreboard [run_phase] Get transaction from monitor: 
# ----------------------------------------------------
# Name               Type             Size  Value     
# ----------------------------------------------------
# uvm_sequence_item  apb_transaction  -     @1687     
#   xact_type        xact_type_enum   1     WRITE     
#   addr             integral         32    'h40002014
#   data             integral         32    'h8       
#   pslverr          integral         1     'h0       
# ----------------------------------------------------
# 
# UVM_INFO ./../regmodel/spi_reg2apb_adapter.sv(41) @ 545000: reporter [spi_reg2apb_adapter] bus2reg: address = 0x40002014, data = 0x8, kind = UVM_WRITE, status = UVM_IS_OK
# UVM_INFO @ 545000: reporter [RegModel] Wrote register via map regmodel.apb_map: regmodel.RBR=0x8
# UVM_INFO ./../regmodel/spi_reg2apb_adapter.sv(27) @ 545000: reporter [spi_reg2apb_adapter] reg2bus: address = 0x40002014, data = 0x0, kind = READ
# UVM_INFO ./../vip/apb_vip/apb_driver.sv(38) @ 555000: uvm_test_top.env.apb_agt.driver [run_phase] Start  READ transaction - ADDR: 0x40002014
# UVM_INFO ./../vip/apb_vip/apb_driver.sv(64) @ 575000: uvm_test_top.env.apb_agt.driver [run_phase] Completed  READ transaction - ADDR: 0x40002014 - DATA: 0x0
# UVM_INFO ./../vip/apb_vip/apb_monitor.sv(45) @ 575000: uvm_test_top.env.apb_agt.monitor [apb_monitor] Finished
# UVM_INFO ./../vip/apb_vip/apb_monitor.sv(46) @ 575000: uvm_test_top.env.apb_agt.monitor [apb_monitor] Send trans from monitor to scoreboard: 
# ----------------------------------------------------
# Name               Type             Size  Value     
# ----------------------------------------------------
# uvm_sequence_item  apb_transaction  -     @1727     
#   xact_type        xact_type_enum   1     READ      
#   addr             integral         32    'h40002014
#   data             integral         32    'h0       
#   pslverr          integral         1     'h0       
# ----------------------------------------------------
# 
# UVM_INFO ./../regmodel/spi_reg2apb_adapter.sv(41) @ 575000: reporter [spi_reg2apb_adapter] bus2reg: address = 0x40002014, data = 0x0, kind = UVM_READ, status = UVM_IS_OK
# UVM_INFO /home/venus/QuestaSim/uvm-1.2/src/reg/uvm_reg_predictor.svh(223) @ 575000: uvm_test_top.env.apb_predictor [REG_PREDICT] Observed READ transaction to register regmodel.RBR: value='h0
# UVM_INFO ./../tb/spi_scoreboard.sv(122) @ 575000: uvm_test_top.env.scoreboard [run_phase] Get transaction from monitor: 
# ----------------------------------------------------
# Name               Type             Size  Value     
# ----------------------------------------------------
# uvm_sequence_item  apb_transaction  -     @1727     
#   xact_type        xact_type_enum   1     READ      
#   addr             integral         32    'h40002014
#   data             integral         32    'h0       
#   pslverr          integral         1     'h0       
# ----------------------------------------------------
# 
# UVM_INFO ./../regmodel/spi_reg2apb_adapter.sv(41) @ 575000: reporter [spi_reg2apb_adapter] bus2reg: address = 0x40002014, data = 0x0, kind = UVM_READ, status = UVM_IS_OK
# UVM_INFO @ 575000: reporter [RegModel] Read  register via map regmodel.apb_map: regmodel.RBR=0
# UVM_INFO /home/venus/QuestaSim/uvm-1.2/src/reg/sequences/uvm_reg_bit_bash_seq.svh(152) @ 575000: reporter@@bit_bash_seq.reg_single_bit_bash_seq [uvm_reg_bit_bash_seq] ...Bashing RO bit #4
# UVM_INFO ./../regmodel/spi_reg2apb_adapter.sv(27) @ 575000: reporter [spi_reg2apb_adapter] reg2bus: address = 0x40002014, data = 0x10, kind = WRITE
# UVM_INFO ./../vip/apb_vip/apb_driver.sv(38) @ 585000: uvm_test_top.env.apb_agt.driver [run_phase] Start WRITE transaction - ADDR: 0x40002014
# UVM_INFO ./../vip/apb_vip/apb_driver.sv(64) @ 605000: uvm_test_top.env.apb_agt.driver [run_phase] Completed WRITE transaction - ADDR: 0x40002014 - DATA: 0x10
# UVM_INFO ./../vip/apb_vip/apb_monitor.sv(45) @ 605000: uvm_test_top.env.apb_agt.monitor [apb_monitor] Finished
# UVM_INFO ./../vip/apb_vip/apb_monitor.sv(46) @ 605000: uvm_test_top.env.apb_agt.monitor [apb_monitor] Send trans from monitor to scoreboard: 
# ----------------------------------------------------
# Name               Type             Size  Value     
# ----------------------------------------------------
# uvm_sequence_item  apb_transaction  -     @1769     
#   xact_type        xact_type_enum   1     WRITE     
#   addr             integral         32    'h40002014
#   data             integral         32    'h10      
#   pslverr          integral         1     'h0       
# ----------------------------------------------------
# 
# UVM_INFO ./../regmodel/spi_reg2apb_adapter.sv(41) @ 605000: reporter [spi_reg2apb_adapter] bus2reg: address = 0x40002014, data = 0x10, kind = UVM_WRITE, status = UVM_IS_OK
# UVM_INFO /home/venus/QuestaSim/uvm-1.2/src/reg/uvm_reg_predictor.svh(218) @ 605000: uvm_test_top.env.apb_predictor [REG_PREDICT] Observed WRITE transaction to register regmodel.RBR: value='h10 : updated value = 'h0
# UVM_INFO ./../tb/spi_scoreboard.sv(122) @ 605000: uvm_test_top.env.scoreboard [run_phase] Get transaction from monitor: 
# ----------------------------------------------------
# Name               Type             Size  Value     
# ----------------------------------------------------
# uvm_sequence_item  apb_transaction  -     @1769     
#   xact_type        xact_type_enum   1     WRITE     
#   addr             integral         32    'h40002014
#   data             integral         32    'h10      
#   pslverr          integral         1     'h0       
# ----------------------------------------------------
# 
# UVM_INFO ./../regmodel/spi_reg2apb_adapter.sv(41) @ 605000: reporter [spi_reg2apb_adapter] bus2reg: address = 0x40002014, data = 0x10, kind = UVM_WRITE, status = UVM_IS_OK
# UVM_INFO @ 605000: reporter [RegModel] Wrote register via map regmodel.apb_map: regmodel.RBR=0x10
# UVM_INFO ./../regmodel/spi_reg2apb_adapter.sv(27) @ 605000: reporter [spi_reg2apb_adapter] reg2bus: address = 0x40002014, data = 0x0, kind = READ
# UVM_INFO ./../vip/apb_vip/apb_driver.sv(38) @ 615000: uvm_test_top.env.apb_agt.driver [run_phase] Start  READ transaction - ADDR: 0x40002014
# UVM_INFO ./../vip/apb_vip/apb_driver.sv(64) @ 635000: uvm_test_top.env.apb_agt.driver [run_phase] Completed  READ transaction - ADDR: 0x40002014 - DATA: 0x0
# UVM_INFO ./../vip/apb_vip/apb_monitor.sv(45) @ 635000: uvm_test_top.env.apb_agt.monitor [apb_monitor] Finished
# UVM_INFO ./../vip/apb_vip/apb_monitor.sv(46) @ 635000: uvm_test_top.env.apb_agt.monitor [apb_monitor] Send trans from monitor to scoreboard: 
# ----------------------------------------------------
# Name               Type             Size  Value     
# ----------------------------------------------------
# uvm_sequence_item  apb_transaction  -     @1809     
#   xact_type        xact_type_enum   1     READ      
#   addr             integral         32    'h40002014
#   data             integral         32    'h0       
#   pslverr          integral         1     'h0       
# ----------------------------------------------------
# 
# UVM_INFO ./../regmodel/spi_reg2apb_adapter.sv(41) @ 635000: reporter [spi_reg2apb_adapter] bus2reg: address = 0x40002014, data = 0x0, kind = UVM_READ, status = UVM_IS_OK
# UVM_INFO /home/venus/QuestaSim/uvm-1.2/src/reg/uvm_reg_predictor.svh(223) @ 635000: uvm_test_top.env.apb_predictor [REG_PREDICT] Observed READ transaction to register regmodel.RBR: value='h0
# UVM_INFO ./../tb/spi_scoreboard.sv(122) @ 635000: uvm_test_top.env.scoreboard [run_phase] Get transaction from monitor: 
# ----------------------------------------------------
# Name               Type             Size  Value     
# ----------------------------------------------------
# uvm_sequence_item  apb_transaction  -     @1809     
#   xact_type        xact_type_enum   1     READ      
#   addr             integral         32    'h40002014
#   data             integral         32    'h0       
#   pslverr          integral         1     'h0       
# ----------------------------------------------------
# 
# UVM_INFO ./../regmodel/spi_reg2apb_adapter.sv(41) @ 635000: reporter [spi_reg2apb_adapter] bus2reg: address = 0x40002014, data = 0x0, kind = UVM_READ, status = UVM_IS_OK
# UVM_INFO @ 635000: reporter [RegModel] Read  register via map regmodel.apb_map: regmodel.RBR=0
# UVM_INFO ./../regmodel/spi_reg2apb_adapter.sv(27) @ 635000: reporter [spi_reg2apb_adapter] reg2bus: address = 0x40002014, data = 0x10, kind = WRITE
# UVM_INFO ./../vip/apb_vip/apb_driver.sv(38) @ 645000: uvm_test_top.env.apb_agt.driver [run_phase] Start WRITE transaction - ADDR: 0x40002014
# UVM_INFO ./../vip/apb_vip/apb_driver.sv(64) @ 665000: uvm_test_top.env.apb_agt.driver [run_phase] Completed WRITE transaction - ADDR: 0x40002014 - DATA: 0x10
# UVM_INFO ./../vip/apb_vip/apb_monitor.sv(45) @ 665000: uvm_test_top.env.apb_agt.monitor [apb_monitor] Finished
# UVM_INFO ./../vip/apb_vip/apb_monitor.sv(46) @ 665000: uvm_test_top.env.apb_agt.monitor [apb_monitor] Send trans from monitor to scoreboard: 
# ----------------------------------------------------
# Name               Type             Size  Value     
# ----------------------------------------------------
# uvm_sequence_item  apb_transaction  -     @1849     
#   xact_type        xact_type_enum   1     WRITE     
#   addr             integral         32    'h40002014
#   data             integral         32    'h10      
#   pslverr          integral         1     'h0       
# ----------------------------------------------------
# 
# UVM_INFO ./../regmodel/spi_reg2apb_adapter.sv(41) @ 665000: reporter [spi_reg2apb_adapter] bus2reg: address = 0x40002014, data = 0x10, kind = UVM_WRITE, status = UVM_IS_OK
# UVM_INFO /home/venus/QuestaSim/uvm-1.2/src/reg/uvm_reg_predictor.svh(218) @ 665000: uvm_test_top.env.apb_predictor [REG_PREDICT] Observed WRITE transaction to register regmodel.RBR: value='h10 : updated value = 'h0
# UVM_INFO ./../tb/spi_scoreboard.sv(122) @ 665000: uvm_test_top.env.scoreboard [run_phase] Get transaction from monitor: 
# ----------------------------------------------------
# Name               Type             Size  Value     
# ----------------------------------------------------
# uvm_sequence_item  apb_transaction  -     @1849     
#   xact_type        xact_type_enum   1     WRITE     
#   addr             integral         32    'h40002014
#   data             integral         32    'h10      
#   pslverr          integral         1     'h0       
# ----------------------------------------------------
# 
# UVM_INFO ./../regmodel/spi_reg2apb_adapter.sv(41) @ 665000: reporter [spi_reg2apb_adapter] bus2reg: address = 0x40002014, data = 0x10, kind = UVM_WRITE, status = UVM_IS_OK
# UVM_INFO @ 665000: reporter [RegModel] Wrote register via map regmodel.apb_map: regmodel.RBR=0x10
# UVM_INFO ./../regmodel/spi_reg2apb_adapter.sv(27) @ 665000: reporter [spi_reg2apb_adapter] reg2bus: address = 0x40002014, data = 0x0, kind = READ
# UVM_INFO ./../vip/apb_vip/apb_driver.sv(38) @ 675000: uvm_test_top.env.apb_agt.driver [run_phase] Start  READ transaction - ADDR: 0x40002014
# UVM_INFO ./../vip/apb_vip/apb_driver.sv(64) @ 695000: uvm_test_top.env.apb_agt.driver [run_phase] Completed  READ transaction - ADDR: 0x40002014 - DATA: 0x0
# UVM_INFO ./../vip/apb_vip/apb_monitor.sv(45) @ 695000: uvm_test_top.env.apb_agt.monitor [apb_monitor] Finished
# UVM_INFO ./../vip/apb_vip/apb_monitor.sv(46) @ 695000: uvm_test_top.env.apb_agt.monitor [apb_monitor] Send trans from monitor to scoreboard: 
# ----------------------------------------------------
# Name               Type             Size  Value     
# ----------------------------------------------------
# uvm_sequence_item  apb_transaction  -     @1889     
#   xact_type        xact_type_enum   1     READ      
#   addr             integral         32    'h40002014
#   data             integral         32    'h0       
#   pslverr          integral         1     'h0       
# ----------------------------------------------------
# 
# UVM_INFO ./../regmodel/spi_reg2apb_adapter.sv(41) @ 695000: reporter [spi_reg2apb_adapter] bus2reg: address = 0x40002014, data = 0x0, kind = UVM_READ, status = UVM_IS_OK
# UVM_INFO /home/venus/QuestaSim/uvm-1.2/src/reg/uvm_reg_predictor.svh(223) @ 695000: uvm_test_top.env.apb_predictor [REG_PREDICT] Observed READ transaction to register regmodel.RBR: value='h0
# UVM_INFO ./../tb/spi_scoreboard.sv(122) @ 695000: uvm_test_top.env.scoreboard [run_phase] Get transaction from monitor: 
# ----------------------------------------------------
# Name               Type             Size  Value     
# ----------------------------------------------------
# uvm_sequence_item  apb_transaction  -     @1889     
#   xact_type        xact_type_enum   1     READ      
#   addr             integral         32    'h40002014
#   data             integral         32    'h0       
#   pslverr          integral         1     'h0       
# ----------------------------------------------------
# 
# UVM_INFO ./../regmodel/spi_reg2apb_adapter.sv(41) @ 695000: reporter [spi_reg2apb_adapter] bus2reg: address = 0x40002014, data = 0x0, kind = UVM_READ, status = UVM_IS_OK
# UVM_INFO @ 695000: reporter [RegModel] Read  register via map regmodel.apb_map: regmodel.RBR=0
# UVM_INFO /home/venus/QuestaSim/uvm-1.2/src/reg/sequences/uvm_reg_bit_bash_seq.svh(152) @ 695000: reporter@@bit_bash_seq.reg_single_bit_bash_seq [uvm_reg_bit_bash_seq] ...Bashing RO bit #5
# UVM_INFO ./../regmodel/spi_reg2apb_adapter.sv(27) @ 695000: reporter [spi_reg2apb_adapter] reg2bus: address = 0x40002014, data = 0x20, kind = WRITE
# UVM_INFO ./../vip/apb_vip/apb_driver.sv(38) @ 705000: uvm_test_top.env.apb_agt.driver [run_phase] Start WRITE transaction - ADDR: 0x40002014
# UVM_INFO ./../vip/apb_vip/apb_driver.sv(64) @ 725000: uvm_test_top.env.apb_agt.driver [run_phase] Completed WRITE transaction - ADDR: 0x40002014 - DATA: 0x20
# UVM_INFO ./../vip/apb_vip/apb_monitor.sv(45) @ 725000: uvm_test_top.env.apb_agt.monitor [apb_monitor] Finished
# UVM_INFO ./../vip/apb_vip/apb_monitor.sv(46) @ 725000: uvm_test_top.env.apb_agt.monitor [apb_monitor] Send trans from monitor to scoreboard: 
# ----------------------------------------------------
# Name               Type             Size  Value     
# ----------------------------------------------------
# uvm_sequence_item  apb_transaction  -     @1931     
#   xact_type        xact_type_enum   1     WRITE     
#   addr             integral         32    'h40002014
#   data             integral         32    'h20      
#   pslverr          integral         1     'h0       
# ----------------------------------------------------
# 
# UVM_INFO ./../regmodel/spi_reg2apb_adapter.sv(41) @ 725000: reporter [spi_reg2apb_adapter] bus2reg: address = 0x40002014, data = 0x20, kind = UVM_WRITE, status = UVM_IS_OK
# UVM_INFO /home/venus/QuestaSim/uvm-1.2/src/reg/uvm_reg_predictor.svh(218) @ 725000: uvm_test_top.env.apb_predictor [REG_PREDICT] Observed WRITE transaction to register regmodel.RBR: value='h20 : updated value = 'h0
# UVM_INFO ./../tb/spi_scoreboard.sv(122) @ 725000: uvm_test_top.env.scoreboard [run_phase] Get transaction from monitor: 
# ----------------------------------------------------
# Name               Type             Size  Value     
# ----------------------------------------------------
# uvm_sequence_item  apb_transaction  -     @1931     
#   xact_type        xact_type_enum   1     WRITE     
#   addr             integral         32    'h40002014
#   data             integral         32    'h20      
#   pslverr          integral         1     'h0       
# ----------------------------------------------------
# 
# UVM_INFO ./../regmodel/spi_reg2apb_adapter.sv(41) @ 725000: reporter [spi_reg2apb_adapter] bus2reg: address = 0x40002014, data = 0x20, kind = UVM_WRITE, status = UVM_IS_OK
# UVM_INFO @ 725000: reporter [RegModel] Wrote register via map regmodel.apb_map: regmodel.RBR=0x20
# UVM_INFO ./../regmodel/spi_reg2apb_adapter.sv(27) @ 725000: reporter [spi_reg2apb_adapter] reg2bus: address = 0x40002014, data = 0x0, kind = READ
# UVM_INFO ./../vip/apb_vip/apb_driver.sv(38) @ 735000: uvm_test_top.env.apb_agt.driver [run_phase] Start  READ transaction - ADDR: 0x40002014
# UVM_INFO ./../vip/apb_vip/apb_driver.sv(64) @ 755000: uvm_test_top.env.apb_agt.driver [run_phase] Completed  READ transaction - ADDR: 0x40002014 - DATA: 0x0
# UVM_INFO ./../vip/apb_vip/apb_monitor.sv(45) @ 755000: uvm_test_top.env.apb_agt.monitor [apb_monitor] Finished
# UVM_INFO ./../vip/apb_vip/apb_monitor.sv(46) @ 755000: uvm_test_top.env.apb_agt.monitor [apb_monitor] Send trans from monitor to scoreboard: 
# ----------------------------------------------------
# Name               Type             Size  Value     
# ----------------------------------------------------
# uvm_sequence_item  apb_transaction  -     @1971     
#   xact_type        xact_type_enum   1     READ      
#   addr             integral         32    'h40002014
#   data             integral         32    'h0       
#   pslverr          integral         1     'h0       
# ----------------------------------------------------
# 
# UVM_INFO ./../regmodel/spi_reg2apb_adapter.sv(41) @ 755000: reporter [spi_reg2apb_adapter] bus2reg: address = 0x40002014, data = 0x0, kind = UVM_READ, status = UVM_IS_OK
# UVM_INFO /home/venus/QuestaSim/uvm-1.2/src/reg/uvm_reg_predictor.svh(223) @ 755000: uvm_test_top.env.apb_predictor [REG_PREDICT] Observed READ transaction to register regmodel.RBR: value='h0
# UVM_INFO ./../tb/spi_scoreboard.sv(122) @ 755000: uvm_test_top.env.scoreboard [run_phase] Get transaction from monitor: 
# ----------------------------------------------------
# Name               Type             Size  Value     
# ----------------------------------------------------
# uvm_sequence_item  apb_transaction  -     @1971     
#   xact_type        xact_type_enum   1     READ      
#   addr             integral         32    'h40002014
#   data             integral         32    'h0       
#   pslverr          integral         1     'h0       
# ----------------------------------------------------
# 
# UVM_INFO ./../regmodel/spi_reg2apb_adapter.sv(41) @ 755000: reporter [spi_reg2apb_adapter] bus2reg: address = 0x40002014, data = 0x0, kind = UVM_READ, status = UVM_IS_OK
# UVM_INFO @ 755000: reporter [RegModel] Read  register via map regmodel.apb_map: regmodel.RBR=0
# UVM_INFO ./../regmodel/spi_reg2apb_adapter.sv(27) @ 755000: reporter [spi_reg2apb_adapter] reg2bus: address = 0x40002014, data = 0x20, kind = WRITE
# UVM_INFO ./../vip/apb_vip/apb_driver.sv(38) @ 765000: uvm_test_top.env.apb_agt.driver [run_phase] Start WRITE transaction - ADDR: 0x40002014
# UVM_INFO ./../vip/apb_vip/apb_driver.sv(64) @ 785000: uvm_test_top.env.apb_agt.driver [run_phase] Completed WRITE transaction - ADDR: 0x40002014 - DATA: 0x20
# UVM_INFO ./../vip/apb_vip/apb_monitor.sv(45) @ 785000: uvm_test_top.env.apb_agt.monitor [apb_monitor] Finished
# UVM_INFO ./../vip/apb_vip/apb_monitor.sv(46) @ 785000: uvm_test_top.env.apb_agt.monitor [apb_monitor] Send trans from monitor to scoreboard: 
# ----------------------------------------------------
# Name               Type             Size  Value     
# ----------------------------------------------------
# uvm_sequence_item  apb_transaction  -     @2011     
#   xact_type        xact_type_enum   1     WRITE     
#   addr             integral         32    'h40002014
#   data             integral         32    'h20      
#   pslverr          integral         1     'h0       
# ----------------------------------------------------
# 
# UVM_INFO ./../regmodel/spi_reg2apb_adapter.sv(41) @ 785000: reporter [spi_reg2apb_adapter] bus2reg: address = 0x40002014, data = 0x20, kind = UVM_WRITE, status = UVM_IS_OK
# UVM_INFO /home/venus/QuestaSim/uvm-1.2/src/reg/uvm_reg_predictor.svh(218) @ 785000: uvm_test_top.env.apb_predictor [REG_PREDICT] Observed WRITE transaction to register regmodel.RBR: value='h20 : updated value = 'h0
# UVM_INFO ./../tb/spi_scoreboard.sv(122) @ 785000: uvm_test_top.env.scoreboard [run_phase] Get transaction from monitor: 
# ----------------------------------------------------
# Name               Type             Size  Value     
# ----------------------------------------------------
# uvm_sequence_item  apb_transaction  -     @2011     
#   xact_type        xact_type_enum   1     WRITE     
#   addr             integral         32    'h40002014
#   data             integral         32    'h20      
#   pslverr          integral         1     'h0       
# ----------------------------------------------------
# 
# UVM_INFO ./../regmodel/spi_reg2apb_adapter.sv(41) @ 785000: reporter [spi_reg2apb_adapter] bus2reg: address = 0x40002014, data = 0x20, kind = UVM_WRITE, status = UVM_IS_OK
# UVM_INFO @ 785000: reporter [RegModel] Wrote register via map regmodel.apb_map: regmodel.RBR=0x20
# UVM_INFO ./../regmodel/spi_reg2apb_adapter.sv(27) @ 785000: reporter [spi_reg2apb_adapter] reg2bus: address = 0x40002014, data = 0x0, kind = READ
# UVM_INFO ./../vip/apb_vip/apb_driver.sv(38) @ 795000: uvm_test_top.env.apb_agt.driver [run_phase] Start  READ transaction - ADDR: 0x40002014
# UVM_INFO ./../vip/apb_vip/apb_driver.sv(64) @ 815000: uvm_test_top.env.apb_agt.driver [run_phase] Completed  READ transaction - ADDR: 0x40002014 - DATA: 0x0
# UVM_INFO ./../vip/apb_vip/apb_monitor.sv(45) @ 815000: uvm_test_top.env.apb_agt.monitor [apb_monitor] Finished
# UVM_INFO ./../vip/apb_vip/apb_monitor.sv(46) @ 815000: uvm_test_top.env.apb_agt.monitor [apb_monitor] Send trans from monitor to scoreboard: 
# ----------------------------------------------------
# Name               Type             Size  Value     
# ----------------------------------------------------
# uvm_sequence_item  apb_transaction  -     @2051     
#   xact_type        xact_type_enum   1     READ      
#   addr             integral         32    'h40002014
#   data             integral         32    'h0       
#   pslverr          integral         1     'h0       
# ----------------------------------------------------
# 
# UVM_INFO ./../regmodel/spi_reg2apb_adapter.sv(41) @ 815000: reporter [spi_reg2apb_adapter] bus2reg: address = 0x40002014, data = 0x0, kind = UVM_READ, status = UVM_IS_OK
# UVM_INFO /home/venus/QuestaSim/uvm-1.2/src/reg/uvm_reg_predictor.svh(223) @ 815000: uvm_test_top.env.apb_predictor [REG_PREDICT] Observed READ transaction to register regmodel.RBR: value='h0
# UVM_INFO ./../tb/spi_scoreboard.sv(122) @ 815000: uvm_test_top.env.scoreboard [run_phase] Get transaction from monitor: 
# ----------------------------------------------------
# Name               Type             Size  Value     
# ----------------------------------------------------
# uvm_sequence_item  apb_transaction  -     @2051     
#   xact_type        xact_type_enum   1     READ      
#   addr             integral         32    'h40002014
#   data             integral         32    'h0       
#   pslverr          integral         1     'h0       
# ----------------------------------------------------
# 
# UVM_INFO ./../regmodel/spi_reg2apb_adapter.sv(41) @ 815000: reporter [spi_reg2apb_adapter] bus2reg: address = 0x40002014, data = 0x0, kind = UVM_READ, status = UVM_IS_OK
# UVM_INFO @ 815000: reporter [RegModel] Read  register via map regmodel.apb_map: regmodel.RBR=0
# UVM_INFO /home/venus/QuestaSim/uvm-1.2/src/reg/sequences/uvm_reg_bit_bash_seq.svh(152) @ 815000: reporter@@bit_bash_seq.reg_single_bit_bash_seq [uvm_reg_bit_bash_seq] ...Bashing RO bit #6
# UVM_INFO ./../regmodel/spi_reg2apb_adapter.sv(27) @ 815000: reporter [spi_reg2apb_adapter] reg2bus: address = 0x40002014, data = 0x40, kind = WRITE
# UVM_INFO ./../vip/apb_vip/apb_driver.sv(38) @ 825000: uvm_test_top.env.apb_agt.driver [run_phase] Start WRITE transaction - ADDR: 0x40002014
# UVM_INFO ./../vip/apb_vip/apb_driver.sv(64) @ 845000: uvm_test_top.env.apb_agt.driver [run_phase] Completed WRITE transaction - ADDR: 0x40002014 - DATA: 0x40
# UVM_INFO ./../vip/apb_vip/apb_monitor.sv(45) @ 845000: uvm_test_top.env.apb_agt.monitor [apb_monitor] Finished
# UVM_INFO ./../vip/apb_vip/apb_monitor.sv(46) @ 845000: uvm_test_top.env.apb_agt.monitor [apb_monitor] Send trans from monitor to scoreboard: 
# ----------------------------------------------------
# Name               Type             Size  Value     
# ----------------------------------------------------
# uvm_sequence_item  apb_transaction  -     @2093     
#   xact_type        xact_type_enum   1     WRITE     
#   addr             integral         32    'h40002014
#   data             integral         32    'h40      
#   pslverr          integral         1     'h0       
# ----------------------------------------------------
# 
# UVM_INFO ./../regmodel/spi_reg2apb_adapter.sv(41) @ 845000: reporter [spi_reg2apb_adapter] bus2reg: address = 0x40002014, data = 0x40, kind = UVM_WRITE, status = UVM_IS_OK
# UVM_INFO /home/venus/QuestaSim/uvm-1.2/src/reg/uvm_reg_predictor.svh(218) @ 845000: uvm_test_top.env.apb_predictor [REG_PREDICT] Observed WRITE transaction to register regmodel.RBR: value='h40 : updated value = 'h0
# UVM_INFO ./../tb/spi_scoreboard.sv(122) @ 845000: uvm_test_top.env.scoreboard [run_phase] Get transaction from monitor: 
# ----------------------------------------------------
# Name               Type             Size  Value     
# ----------------------------------------------------
# uvm_sequence_item  apb_transaction  -     @2093     
#   xact_type        xact_type_enum   1     WRITE     
#   addr             integral         32    'h40002014
#   data             integral         32    'h40      
#   pslverr          integral         1     'h0       
# ----------------------------------------------------
# 
# UVM_INFO ./../regmodel/spi_reg2apb_adapter.sv(41) @ 845000: reporter [spi_reg2apb_adapter] bus2reg: address = 0x40002014, data = 0x40, kind = UVM_WRITE, status = UVM_IS_OK
# UVM_INFO @ 845000: reporter [RegModel] Wrote register via map regmodel.apb_map: regmodel.RBR=0x40
# UVM_INFO ./../regmodel/spi_reg2apb_adapter.sv(27) @ 845000: reporter [spi_reg2apb_adapter] reg2bus: address = 0x40002014, data = 0x0, kind = READ
# UVM_INFO ./../vip/apb_vip/apb_driver.sv(38) @ 855000: uvm_test_top.env.apb_agt.driver [run_phase] Start  READ transaction - ADDR: 0x40002014
# UVM_INFO ./../vip/apb_vip/apb_driver.sv(64) @ 875000: uvm_test_top.env.apb_agt.driver [run_phase] Completed  READ transaction - ADDR: 0x40002014 - DATA: 0x0
# UVM_INFO ./../vip/apb_vip/apb_monitor.sv(45) @ 875000: uvm_test_top.env.apb_agt.monitor [apb_monitor] Finished
# UVM_INFO ./../vip/apb_vip/apb_monitor.sv(46) @ 875000: uvm_test_top.env.apb_agt.monitor [apb_monitor] Send trans from monitor to scoreboard: 
# ----------------------------------------------------
# Name               Type             Size  Value     
# ----------------------------------------------------
# uvm_sequence_item  apb_transaction  -     @2133     
#   xact_type        xact_type_enum   1     READ      
#   addr             integral         32    'h40002014
#   data             integral         32    'h0       
#   pslverr          integral         1     'h0       
# ----------------------------------------------------
# 
# UVM_INFO ./../regmodel/spi_reg2apb_adapter.sv(41) @ 875000: reporter [spi_reg2apb_adapter] bus2reg: address = 0x40002014, data = 0x0, kind = UVM_READ, status = UVM_IS_OK
# UVM_INFO /home/venus/QuestaSim/uvm-1.2/src/reg/uvm_reg_predictor.svh(223) @ 875000: uvm_test_top.env.apb_predictor [REG_PREDICT] Observed READ transaction to register regmodel.RBR: value='h0
# UVM_INFO ./../tb/spi_scoreboard.sv(122) @ 875000: uvm_test_top.env.scoreboard [run_phase] Get transaction from monitor: 
# ----------------------------------------------------
# Name               Type             Size  Value     
# ----------------------------------------------------
# uvm_sequence_item  apb_transaction  -     @2133     
#   xact_type        xact_type_enum   1     READ      
#   addr             integral         32    'h40002014
#   data             integral         32    'h0       
#   pslverr          integral         1     'h0       
# ----------------------------------------------------
# 
# UVM_INFO ./../regmodel/spi_reg2apb_adapter.sv(41) @ 875000: reporter [spi_reg2apb_adapter] bus2reg: address = 0x40002014, data = 0x0, kind = UVM_READ, status = UVM_IS_OK
# UVM_INFO @ 875000: reporter [RegModel] Read  register via map regmodel.apb_map: regmodel.RBR=0
# UVM_INFO ./../regmodel/spi_reg2apb_adapter.sv(27) @ 875000: reporter [spi_reg2apb_adapter] reg2bus: address = 0x40002014, data = 0x40, kind = WRITE
# UVM_INFO ./../vip/apb_vip/apb_driver.sv(38) @ 885000: uvm_test_top.env.apb_agt.driver [run_phase] Start WRITE transaction - ADDR: 0x40002014
# UVM_INFO ./../vip/apb_vip/apb_driver.sv(64) @ 905000: uvm_test_top.env.apb_agt.driver [run_phase] Completed WRITE transaction - ADDR: 0x40002014 - DATA: 0x40
# UVM_INFO ./../vip/apb_vip/apb_monitor.sv(45) @ 905000: uvm_test_top.env.apb_agt.monitor [apb_monitor] Finished
# UVM_INFO ./../vip/apb_vip/apb_monitor.sv(46) @ 905000: uvm_test_top.env.apb_agt.monitor [apb_monitor] Send trans from monitor to scoreboard: 
# ----------------------------------------------------
# Name               Type             Size  Value     
# ----------------------------------------------------
# uvm_sequence_item  apb_transaction  -     @2173     
#   xact_type        xact_type_enum   1     WRITE     
#   addr             integral         32    'h40002014
#   data             integral         32    'h40      
#   pslverr          integral         1     'h0       
# ----------------------------------------------------
# 
# UVM_INFO ./../regmodel/spi_reg2apb_adapter.sv(41) @ 905000: reporter [spi_reg2apb_adapter] bus2reg: address = 0x40002014, data = 0x40, kind = UVM_WRITE, status = UVM_IS_OK
# UVM_INFO /home/venus/QuestaSim/uvm-1.2/src/reg/uvm_reg_predictor.svh(218) @ 905000: uvm_test_top.env.apb_predictor [REG_PREDICT] Observed WRITE transaction to register regmodel.RBR: value='h40 : updated value = 'h0
# UVM_INFO ./../tb/spi_scoreboard.sv(122) @ 905000: uvm_test_top.env.scoreboard [run_phase] Get transaction from monitor: 
# ----------------------------------------------------
# Name               Type             Size  Value     
# ----------------------------------------------------
# uvm_sequence_item  apb_transaction  -     @2173     
#   xact_type        xact_type_enum   1     WRITE     
#   addr             integral         32    'h40002014
#   data             integral         32    'h40      
#   pslverr          integral         1     'h0       
# ----------------------------------------------------
# 
# UVM_INFO ./../regmodel/spi_reg2apb_adapter.sv(41) @ 905000: reporter [spi_reg2apb_adapter] bus2reg: address = 0x40002014, data = 0x40, kind = UVM_WRITE, status = UVM_IS_OK
# UVM_INFO @ 905000: reporter [RegModel] Wrote register via map regmodel.apb_map: regmodel.RBR=0x40
# UVM_INFO ./../regmodel/spi_reg2apb_adapter.sv(27) @ 905000: reporter [spi_reg2apb_adapter] reg2bus: address = 0x40002014, data = 0x0, kind = READ
# UVM_INFO ./../vip/apb_vip/apb_driver.sv(38) @ 915000: uvm_test_top.env.apb_agt.driver [run_phase] Start  READ transaction - ADDR: 0x40002014
# UVM_INFO ./../vip/apb_vip/apb_driver.sv(64) @ 935000: uvm_test_top.env.apb_agt.driver [run_phase] Completed  READ transaction - ADDR: 0x40002014 - DATA: 0x0
# UVM_INFO ./../vip/apb_vip/apb_monitor.sv(45) @ 935000: uvm_test_top.env.apb_agt.monitor [apb_monitor] Finished
# UVM_INFO ./../vip/apb_vip/apb_monitor.sv(46) @ 935000: uvm_test_top.env.apb_agt.monitor [apb_monitor] Send trans from monitor to scoreboard: 
# ----------------------------------------------------
# Name               Type             Size  Value     
# ----------------------------------------------------
# uvm_sequence_item  apb_transaction  -     @2213     
#   xact_type        xact_type_enum   1     READ      
#   addr             integral         32    'h40002014
#   data             integral         32    'h0       
#   pslverr          integral         1     'h0       
# ----------------------------------------------------
# 
# UVM_INFO ./../regmodel/spi_reg2apb_adapter.sv(41) @ 935000: reporter [spi_reg2apb_adapter] bus2reg: address = 0x40002014, data = 0x0, kind = UVM_READ, status = UVM_IS_OK
# UVM_INFO /home/venus/QuestaSim/uvm-1.2/src/reg/uvm_reg_predictor.svh(223) @ 935000: uvm_test_top.env.apb_predictor [REG_PREDICT] Observed READ transaction to register regmodel.RBR: value='h0
# UVM_INFO ./../tb/spi_scoreboard.sv(122) @ 935000: uvm_test_top.env.scoreboard [run_phase] Get transaction from monitor: 
# ----------------------------------------------------
# Name               Type             Size  Value     
# ----------------------------------------------------
# uvm_sequence_item  apb_transaction  -     @2213     
#   xact_type        xact_type_enum   1     READ      
#   addr             integral         32    'h40002014
#   data             integral         32    'h0       
#   pslverr          integral         1     'h0       
# ----------------------------------------------------
# 
# UVM_INFO ./../regmodel/spi_reg2apb_adapter.sv(41) @ 935000: reporter [spi_reg2apb_adapter] bus2reg: address = 0x40002014, data = 0x0, kind = UVM_READ, status = UVM_IS_OK
# UVM_INFO @ 935000: reporter [RegModel] Read  register via map regmodel.apb_map: regmodel.RBR=0
# UVM_INFO /home/venus/QuestaSim/uvm-1.2/src/reg/sequences/uvm_reg_bit_bash_seq.svh(152) @ 935000: reporter@@bit_bash_seq.reg_single_bit_bash_seq [uvm_reg_bit_bash_seq] ...Bashing RO bit #7
# UVM_INFO ./../regmodel/spi_reg2apb_adapter.sv(27) @ 935000: reporter [spi_reg2apb_adapter] reg2bus: address = 0x40002014, data = 0x80, kind = WRITE
# UVM_INFO ./../vip/apb_vip/apb_driver.sv(38) @ 945000: uvm_test_top.env.apb_agt.driver [run_phase] Start WRITE transaction - ADDR: 0x40002014
# UVM_INFO ./../vip/apb_vip/apb_driver.sv(64) @ 965000: uvm_test_top.env.apb_agt.driver [run_phase] Completed WRITE transaction - ADDR: 0x40002014 - DATA: 0x80
# UVM_INFO ./../vip/apb_vip/apb_monitor.sv(45) @ 965000: uvm_test_top.env.apb_agt.monitor [apb_monitor] Finished
# UVM_INFO ./../vip/apb_vip/apb_monitor.sv(46) @ 965000: uvm_test_top.env.apb_agt.monitor [apb_monitor] Send trans from monitor to scoreboard: 
# ----------------------------------------------------
# Name               Type             Size  Value     
# ----------------------------------------------------
# uvm_sequence_item  apb_transaction  -     @2255     
#   xact_type        xact_type_enum   1     WRITE     
#   addr             integral         32    'h40002014
#   data             integral         32    'h80      
#   pslverr          integral         1     'h0       
# ----------------------------------------------------
# 
# UVM_INFO ./../regmodel/spi_reg2apb_adapter.sv(41) @ 965000: reporter [spi_reg2apb_adapter] bus2reg: address = 0x40002014, data = 0x80, kind = UVM_WRITE, status = UVM_IS_OK
# UVM_INFO /home/venus/QuestaSim/uvm-1.2/src/reg/uvm_reg_predictor.svh(218) @ 965000: uvm_test_top.env.apb_predictor [REG_PREDICT] Observed WRITE transaction to register regmodel.RBR: value='h80 : updated value = 'h0
# UVM_INFO ./../tb/spi_scoreboard.sv(122) @ 965000: uvm_test_top.env.scoreboard [run_phase] Get transaction from monitor: 
# ----------------------------------------------------
# Name               Type             Size  Value     
# ----------------------------------------------------
# uvm_sequence_item  apb_transaction  -     @2255     
#   xact_type        xact_type_enum   1     WRITE     
#   addr             integral         32    'h40002014
#   data             integral         32    'h80      
#   pslverr          integral         1     'h0       
# ----------------------------------------------------
# 
# UVM_INFO ./../regmodel/spi_reg2apb_adapter.sv(41) @ 965000: reporter [spi_reg2apb_adapter] bus2reg: address = 0x40002014, data = 0x80, kind = UVM_WRITE, status = UVM_IS_OK
# UVM_INFO @ 965000: reporter [RegModel] Wrote register via map regmodel.apb_map: regmodel.RBR=0x80
# UVM_INFO ./../regmodel/spi_reg2apb_adapter.sv(27) @ 965000: reporter [spi_reg2apb_adapter] reg2bus: address = 0x40002014, data = 0x0, kind = READ
# UVM_INFO ./../vip/apb_vip/apb_driver.sv(38) @ 975000: uvm_test_top.env.apb_agt.driver [run_phase] Start  READ transaction - ADDR: 0x40002014
# UVM_INFO ./../vip/apb_vip/apb_driver.sv(64) @ 995000: uvm_test_top.env.apb_agt.driver [run_phase] Completed  READ transaction - ADDR: 0x40002014 - DATA: 0x0
# UVM_INFO ./../vip/apb_vip/apb_monitor.sv(45) @ 995000: uvm_test_top.env.apb_agt.monitor [apb_monitor] Finished
# UVM_INFO ./../vip/apb_vip/apb_monitor.sv(46) @ 995000: uvm_test_top.env.apb_agt.monitor [apb_monitor] Send trans from monitor to scoreboard: 
# ----------------------------------------------------
# Name               Type             Size  Value     
# ----------------------------------------------------
# uvm_sequence_item  apb_transaction  -     @2295     
#   xact_type        xact_type_enum   1     READ      
#   addr             integral         32    'h40002014
#   data             integral         32    'h0       
#   pslverr          integral         1     'h0       
# ----------------------------------------------------
# 
# UVM_INFO ./../regmodel/spi_reg2apb_adapter.sv(41) @ 995000: reporter [spi_reg2apb_adapter] bus2reg: address = 0x40002014, data = 0x0, kind = UVM_READ, status = UVM_IS_OK
# UVM_INFO /home/venus/QuestaSim/uvm-1.2/src/reg/uvm_reg_predictor.svh(223) @ 995000: uvm_test_top.env.apb_predictor [REG_PREDICT] Observed READ transaction to register regmodel.RBR: value='h0
# UVM_INFO ./../tb/spi_scoreboard.sv(122) @ 995000: uvm_test_top.env.scoreboard [run_phase] Get transaction from monitor: 
# ----------------------------------------------------
# Name               Type             Size  Value     
# ----------------------------------------------------
# uvm_sequence_item  apb_transaction  -     @2295     
#   xact_type        xact_type_enum   1     READ      
#   addr             integral         32    'h40002014
#   data             integral         32    'h0       
#   pslverr          integral         1     'h0       
# ----------------------------------------------------
# 
# UVM_INFO ./../regmodel/spi_reg2apb_adapter.sv(41) @ 995000: reporter [spi_reg2apb_adapter] bus2reg: address = 0x40002014, data = 0x0, kind = UVM_READ, status = UVM_IS_OK
# UVM_INFO @ 995000: reporter [RegModel] Read  register via map regmodel.apb_map: regmodel.RBR=0
# UVM_INFO ./../regmodel/spi_reg2apb_adapter.sv(27) @ 995000: reporter [spi_reg2apb_adapter] reg2bus: address = 0x40002014, data = 0x80, kind = WRITE
# UVM_INFO ./../vip/apb_vip/apb_driver.sv(38) @ 1005000: uvm_test_top.env.apb_agt.driver [run_phase] Start WRITE transaction - ADDR: 0x40002014
# UVM_INFO ./../vip/apb_vip/apb_driver.sv(64) @ 1025000: uvm_test_top.env.apb_agt.driver [run_phase] Completed WRITE transaction - ADDR: 0x40002014 - DATA: 0x80
# UVM_INFO ./../vip/apb_vip/apb_monitor.sv(45) @ 1025000: uvm_test_top.env.apb_agt.monitor [apb_monitor] Finished
# UVM_INFO ./../vip/apb_vip/apb_monitor.sv(46) @ 1025000: uvm_test_top.env.apb_agt.monitor [apb_monitor] Send trans from monitor to scoreboard: 
# ----------------------------------------------------
# Name               Type             Size  Value     
# ----------------------------------------------------
# uvm_sequence_item  apb_transaction  -     @2335     
#   xact_type        xact_type_enum   1     WRITE     
#   addr             integral         32    'h40002014
#   data             integral         32    'h80      
#   pslverr          integral         1     'h0       
# ----------------------------------------------------
# 
# UVM_INFO ./../regmodel/spi_reg2apb_adapter.sv(41) @ 1025000: reporter [spi_reg2apb_adapter] bus2reg: address = 0x40002014, data = 0x80, kind = UVM_WRITE, status = UVM_IS_OK
# UVM_INFO /home/venus/QuestaSim/uvm-1.2/src/reg/uvm_reg_predictor.svh(218) @ 1025000: uvm_test_top.env.apb_predictor [REG_PREDICT] Observed WRITE transaction to register regmodel.RBR: value='h80 : updated value = 'h0
# UVM_INFO ./../tb/spi_scoreboard.sv(122) @ 1025000: uvm_test_top.env.scoreboard [run_phase] Get transaction from monitor: 
# ----------------------------------------------------
# Name               Type             Size  Value     
# ----------------------------------------------------
# uvm_sequence_item  apb_transaction  -     @2335     
#   xact_type        xact_type_enum   1     WRITE     
#   addr             integral         32    'h40002014
#   data             integral         32    'h80      
#   pslverr          integral         1     'h0       
# ----------------------------------------------------
# 
# UVM_INFO ./../regmodel/spi_reg2apb_adapter.sv(41) @ 1025000: reporter [spi_reg2apb_adapter] bus2reg: address = 0x40002014, data = 0x80, kind = UVM_WRITE, status = UVM_IS_OK
# UVM_INFO @ 1025000: reporter [RegModel] Wrote register via map regmodel.apb_map: regmodel.RBR=0x80
# UVM_INFO ./../regmodel/spi_reg2apb_adapter.sv(27) @ 1025000: reporter [spi_reg2apb_adapter] reg2bus: address = 0x40002014, data = 0x0, kind = READ
# UVM_INFO ./../vip/apb_vip/apb_driver.sv(38) @ 1035000: uvm_test_top.env.apb_agt.driver [run_phase] Start  READ transaction - ADDR: 0x40002014
# UVM_INFO ./../vip/apb_vip/apb_driver.sv(64) @ 1055000: uvm_test_top.env.apb_agt.driver [run_phase] Completed  READ transaction - ADDR: 0x40002014 - DATA: 0x0
# UVM_INFO ./../vip/apb_vip/apb_monitor.sv(45) @ 1055000: uvm_test_top.env.apb_agt.monitor [apb_monitor] Finished
# UVM_INFO ./../vip/apb_vip/apb_monitor.sv(46) @ 1055000: uvm_test_top.env.apb_agt.monitor [apb_monitor] Send trans from monitor to scoreboard: 
# ----------------------------------------------------
# Name               Type             Size  Value     
# ----------------------------------------------------
# uvm_sequence_item  apb_transaction  -     @2375     
#   xact_type        xact_type_enum   1     READ      
#   addr             integral         32    'h40002014
#   data             integral         32    'h0       
#   pslverr          integral         1     'h0       
# ----------------------------------------------------
# 
# UVM_INFO ./../regmodel/spi_reg2apb_adapter.sv(41) @ 1055000: reporter [spi_reg2apb_adapter] bus2reg: address = 0x40002014, data = 0x0, kind = UVM_READ, status = UVM_IS_OK
# UVM_INFO /home/venus/QuestaSim/uvm-1.2/src/reg/uvm_reg_predictor.svh(223) @ 1055000: uvm_test_top.env.apb_predictor [REG_PREDICT] Observed READ transaction to register regmodel.RBR: value='h0
# UVM_INFO ./../tb/spi_scoreboard.sv(122) @ 1055000: uvm_test_top.env.scoreboard [run_phase] Get transaction from monitor: 
# ----------------------------------------------------
# Name               Type             Size  Value     
# ----------------------------------------------------
# uvm_sequence_item  apb_transaction  -     @2375     
#   xact_type        xact_type_enum   1     READ      
#   addr             integral         32    'h40002014
#   data             integral         32    'h0       
#   pslverr          integral         1     'h0       
# ----------------------------------------------------
# 
# UVM_INFO ./../regmodel/spi_reg2apb_adapter.sv(41) @ 1055000: reporter [spi_reg2apb_adapter] bus2reg: address = 0x40002014, data = 0x0, kind = UVM_READ, status = UVM_IS_OK
# UVM_INFO @ 1055000: reporter [RegModel] Read  register via map regmodel.apb_map: regmodel.RBR=0
# UVM_INFO /home/venus/QuestaSim/uvm-1.2/src/reg/sequences/uvm_reg_bit_bash_seq.svh(152) @ 1055000: reporter@@bit_bash_seq.reg_single_bit_bash_seq [uvm_reg_bit_bash_seq] ...Bashing RO bit #8
# UVM_INFO ./../regmodel/spi_reg2apb_adapter.sv(27) @ 1055000: reporter [spi_reg2apb_adapter] reg2bus: address = 0x40002014, data = 0x100, kind = WRITE
# UVM_INFO ./../vip/apb_vip/apb_driver.sv(38) @ 1065000: uvm_test_top.env.apb_agt.driver [run_phase] Start WRITE transaction - ADDR: 0x40002014
# UVM_INFO ./../vip/apb_vip/apb_driver.sv(64) @ 1085000: uvm_test_top.env.apb_agt.driver [run_phase] Completed WRITE transaction - ADDR: 0x40002014 - DATA: 0x100
# UVM_INFO ./../vip/apb_vip/apb_monitor.sv(45) @ 1085000: uvm_test_top.env.apb_agt.monitor [apb_monitor] Finished
# UVM_INFO ./../vip/apb_vip/apb_monitor.sv(46) @ 1085000: uvm_test_top.env.apb_agt.monitor [apb_monitor] Send trans from monitor to scoreboard: 
# ----------------------------------------------------
# Name               Type             Size  Value     
# ----------------------------------------------------
# uvm_sequence_item  apb_transaction  -     @2417     
#   xact_type        xact_type_enum   1     WRITE     
#   addr             integral         32    'h40002014
#   data             integral         32    'h100     
#   pslverr          integral         1     'h0       
# ----------------------------------------------------
# 
# UVM_INFO ./../regmodel/spi_reg2apb_adapter.sv(41) @ 1085000: reporter [spi_reg2apb_adapter] bus2reg: address = 0x40002014, data = 0x100, kind = UVM_WRITE, status = UVM_IS_OK
# UVM_INFO /home/venus/QuestaSim/uvm-1.2/src/reg/uvm_reg_predictor.svh(218) @ 1085000: uvm_test_top.env.apb_predictor [REG_PREDICT] Observed WRITE transaction to register regmodel.RBR: value='h100 : updated value = 'h0
# UVM_INFO ./../tb/spi_scoreboard.sv(122) @ 1085000: uvm_test_top.env.scoreboard [run_phase] Get transaction from monitor: 
# ----------------------------------------------------
# Name               Type             Size  Value     
# ----------------------------------------------------
# uvm_sequence_item  apb_transaction  -     @2417     
#   xact_type        xact_type_enum   1     WRITE     
#   addr             integral         32    'h40002014
#   data             integral         32    'h100     
#   pslverr          integral         1     'h0       
# ----------------------------------------------------
# 
# UVM_INFO ./../regmodel/spi_reg2apb_adapter.sv(41) @ 1085000: reporter [spi_reg2apb_adapter] bus2reg: address = 0x40002014, data = 0x100, kind = UVM_WRITE, status = UVM_IS_OK
# UVM_INFO @ 1085000: reporter [RegModel] Wrote register via map regmodel.apb_map: regmodel.RBR=0x100
# UVM_INFO ./../regmodel/spi_reg2apb_adapter.sv(27) @ 1085000: reporter [spi_reg2apb_adapter] reg2bus: address = 0x40002014, data = 0x0, kind = READ
# UVM_INFO ./../vip/apb_vip/apb_driver.sv(38) @ 1095000: uvm_test_top.env.apb_agt.driver [run_phase] Start  READ transaction - ADDR: 0x40002014
# UVM_INFO ./../vip/apb_vip/apb_driver.sv(64) @ 1115000: uvm_test_top.env.apb_agt.driver [run_phase] Completed  READ transaction - ADDR: 0x40002014 - DATA: 0x0
# UVM_INFO ./../vip/apb_vip/apb_monitor.sv(45) @ 1115000: uvm_test_top.env.apb_agt.monitor [apb_monitor] Finished
# UVM_INFO ./../vip/apb_vip/apb_monitor.sv(46) @ 1115000: uvm_test_top.env.apb_agt.monitor [apb_monitor] Send trans from monitor to scoreboard: 
# ----------------------------------------------------
# Name               Type             Size  Value     
# ----------------------------------------------------
# uvm_sequence_item  apb_transaction  -     @2457     
#   xact_type        xact_type_enum   1     READ      
#   addr             integral         32    'h40002014
#   data             integral         32    'h0       
#   pslverr          integral         1     'h0       
# ----------------------------------------------------
# 
# UVM_INFO ./../regmodel/spi_reg2apb_adapter.sv(41) @ 1115000: reporter [spi_reg2apb_adapter] bus2reg: address = 0x40002014, data = 0x0, kind = UVM_READ, status = UVM_IS_OK
# UVM_INFO /home/venus/QuestaSim/uvm-1.2/src/reg/uvm_reg_predictor.svh(223) @ 1115000: uvm_test_top.env.apb_predictor [REG_PREDICT] Observed READ transaction to register regmodel.RBR: value='h0
# UVM_INFO ./../tb/spi_scoreboard.sv(122) @ 1115000: uvm_test_top.env.scoreboard [run_phase] Get transaction from monitor: 
# ----------------------------------------------------
# Name               Type             Size  Value     
# ----------------------------------------------------
# uvm_sequence_item  apb_transaction  -     @2457     
#   xact_type        xact_type_enum   1     READ      
#   addr             integral         32    'h40002014
#   data             integral         32    'h0       
#   pslverr          integral         1     'h0       
# ----------------------------------------------------
# 
# UVM_INFO ./../regmodel/spi_reg2apb_adapter.sv(41) @ 1115000: reporter [spi_reg2apb_adapter] bus2reg: address = 0x40002014, data = 0x0, kind = UVM_READ, status = UVM_IS_OK
# UVM_INFO @ 1115000: reporter [RegModel] Read  register via map regmodel.apb_map: regmodel.RBR=0
# UVM_INFO ./../regmodel/spi_reg2apb_adapter.sv(27) @ 1115000: reporter [spi_reg2apb_adapter] reg2bus: address = 0x40002014, data = 0x100, kind = WRITE
# UVM_INFO ./../vip/apb_vip/apb_driver.sv(38) @ 1125000: uvm_test_top.env.apb_agt.driver [run_phase] Start WRITE transaction - ADDR: 0x40002014
# UVM_INFO ./../vip/apb_vip/apb_driver.sv(64) @ 1145000: uvm_test_top.env.apb_agt.driver [run_phase] Completed WRITE transaction - ADDR: 0x40002014 - DATA: 0x100
# UVM_INFO ./../vip/apb_vip/apb_monitor.sv(45) @ 1145000: uvm_test_top.env.apb_agt.monitor [apb_monitor] Finished
# UVM_INFO ./../vip/apb_vip/apb_monitor.sv(46) @ 1145000: uvm_test_top.env.apb_agt.monitor [apb_monitor] Send trans from monitor to scoreboard: 
# ----------------------------------------------------
# Name               Type             Size  Value     
# ----------------------------------------------------
# uvm_sequence_item  apb_transaction  -     @2497     
#   xact_type        xact_type_enum   1     WRITE     
#   addr             integral         32    'h40002014
#   data             integral         32    'h100     
#   pslverr          integral         1     'h0       
# ----------------------------------------------------
# 
# UVM_INFO ./../regmodel/spi_reg2apb_adapter.sv(41) @ 1145000: reporter [spi_reg2apb_adapter] bus2reg: address = 0x40002014, data = 0x100, kind = UVM_WRITE, status = UVM_IS_OK
# UVM_INFO /home/venus/QuestaSim/uvm-1.2/src/reg/uvm_reg_predictor.svh(218) @ 1145000: uvm_test_top.env.apb_predictor [REG_PREDICT] Observed WRITE transaction to register regmodel.RBR: value='h100 : updated value = 'h0
# UVM_INFO ./../tb/spi_scoreboard.sv(122) @ 1145000: uvm_test_top.env.scoreboard [run_phase] Get transaction from monitor: 
# ----------------------------------------------------
# Name               Type             Size  Value     
# ----------------------------------------------------
# uvm_sequence_item  apb_transaction  -     @2497     
#   xact_type        xact_type_enum   1     WRITE     
#   addr             integral         32    'h40002014
#   data             integral         32    'h100     
#   pslverr          integral         1     'h0       
# ----------------------------------------------------
# 
# UVM_INFO ./../regmodel/spi_reg2apb_adapter.sv(41) @ 1145000: reporter [spi_reg2apb_adapter] bus2reg: address = 0x40002014, data = 0x100, kind = UVM_WRITE, status = UVM_IS_OK
# UVM_INFO @ 1145000: reporter [RegModel] Wrote register via map regmodel.apb_map: regmodel.RBR=0x100
# UVM_INFO ./../regmodel/spi_reg2apb_adapter.sv(27) @ 1145000: reporter [spi_reg2apb_adapter] reg2bus: address = 0x40002014, data = 0x0, kind = READ
# UVM_INFO ./../vip/apb_vip/apb_driver.sv(38) @ 1155000: uvm_test_top.env.apb_agt.driver [run_phase] Start  READ transaction - ADDR: 0x40002014
# UVM_INFO ./../vip/apb_vip/apb_driver.sv(64) @ 1175000: uvm_test_top.env.apb_agt.driver [run_phase] Completed  READ transaction - ADDR: 0x40002014 - DATA: 0x0
# UVM_INFO ./../vip/apb_vip/apb_monitor.sv(45) @ 1175000: uvm_test_top.env.apb_agt.monitor [apb_monitor] Finished
# UVM_INFO ./../vip/apb_vip/apb_monitor.sv(46) @ 1175000: uvm_test_top.env.apb_agt.monitor [apb_monitor] Send trans from monitor to scoreboard: 
# ----------------------------------------------------
# Name               Type             Size  Value     
# ----------------------------------------------------
# uvm_sequence_item  apb_transaction  -     @2537     
#   xact_type        xact_type_enum   1     READ      
#   addr             integral         32    'h40002014
#   data             integral         32    'h0       
#   pslverr          integral         1     'h0       
# ----------------------------------------------------
# 
# UVM_INFO ./../regmodel/spi_reg2apb_adapter.sv(41) @ 1175000: reporter [spi_reg2apb_adapter] bus2reg: address = 0x40002014, data = 0x0, kind = UVM_READ, status = UVM_IS_OK
# UVM_INFO /home/venus/QuestaSim/uvm-1.2/src/reg/uvm_reg_predictor.svh(223) @ 1175000: uvm_test_top.env.apb_predictor [REG_PREDICT] Observed READ transaction to register regmodel.RBR: value='h0
# UVM_INFO ./../tb/spi_scoreboard.sv(122) @ 1175000: uvm_test_top.env.scoreboard [run_phase] Get transaction from monitor: 
# ----------------------------------------------------
# Name               Type             Size  Value     
# ----------------------------------------------------
# uvm_sequence_item  apb_transaction  -     @2537     
#   xact_type        xact_type_enum   1     READ      
#   addr             integral         32    'h40002014
#   data             integral         32    'h0       
#   pslverr          integral         1     'h0       
# ----------------------------------------------------
# 
